t(s)	Id(A)	Vd(mV)	Vg(mV)	t(s)	Temp(Celsius)	Hum(%RH)	
1.000000e-03	1.001357e-07	1.000000e+03	0.000000e+00	0.000000e+00	2.500000e+01	2.500000e+01	
3.020000e-01	1.001210e-07	1.000000e+03	0.000000e+00	3.000000e-01	2.500000e+01	2.500000e+01	
6.040000e-01	1.001538e-07	1.000000e+03	0.000000e+00	6.000000e-01	2.500000e+01	2.500000e+01	
9.050000e-01	1.000911e-07	1.000000e+03	0.000000e+00	9.000000e-01	2.500000e+01	2.500000e+01	
1.207000e+00	1.001580e-07	1.000000e+03	0.000000e+00	1.200000e+00	2.500000e+01	2.500000e+01	
1.508000e+00	1.001180e-07	1.000000e+03	0.000000e+00	1.500000e+00	2.500000e+01	2.500000e+01	
1.810000e+00	1.001166e-07	1.000000e+03	0.000000e+00	1.800000e+00	2.500000e+01	2.500000e+01	
2.112000e+00	1.001526e-07	1.000000e+03	0.000000e+00	2.100000e+00	2.500000e+01	2.500000e+01	
2.413000e+00	1.001126e-07	1.000000e+03	0.000000e+00	2.400000e+00	2.500000e+01	2.500000e+01	
2.715000e+00	1.001396e-07	1.000000e+03	0.000000e+00	2.700000e+00	2.500000e+01	2.500000e+01	
3.017000e+00	1.001442e-07	1.000000e+03	0.000000e+00	3.000000e+00	2.500000e+01	2.500000e+01	
3.319000e+00	1.001892e-07	1.000000e+03	0.000000e+00	3.300000e+00	2.500000e+01	2.500000e+01	
3.620000e+00	1.001550e-07	1.000000e+03	0.000000e+00	3.600000e+00	2.500000e+01	2.500000e+01	
3.922000e+00	1.001213e-07	1.000000e+03	0.000000e+00	3.900000e+00	2.500000e+01	2.500000e+01	
4.224000e+00	1.001661e-07	1.000000e+03	0.000000e+00	4.200000e+00	2.500000e+01	2.500000e+01	
4.525000e+00	1.001213e-07	1.000000e+03	0.000000e+00	4.500000e+00	2.500000e+01	2.500000e+01	
4.827000e+00	1.001399e-07	1.000000e+03	0.000000e+00	4.800000e+00	2.500000e+01	2.500000e+01	
5.128000e+00	1.000968e-07	1.000000e+03	0.000000e+00	5.100000e+00	2.500000e+01	2.500000e+01	
5.430000e+00	1.001372e-07	1.000000e+03	0.000000e+00	5.400000e+00	2.500000e+01	2.500000e+01	
5.732000e+00	1.001881e-07	1.000000e+03	0.000000e+00	5.700000e+00	2.500000e+01	2.500000e+01	
6.033000e+00	1.001394e-07	1.000000e+03	0.000000e+00	6.000000e+00	2.500000e+01	2.500000e+01	
6.335000e+00	1.001652e-07	1.000000e+03	0.000000e+00	6.300000e+00	2.500000e+01	2.500000e+01	
6.636000e+00	1.001261e-07	1.000000e+03	0.000000e+00	6.600000e+00	2.500000e+01	2.500000e+01	
							
							
							
							
							
							
							
							
							
							
							
							
							
							
							
							
							
							
							
							
							
							
							
							
							
							
							
							
							
							
							
							
							
							
							
							
							
							
							
							
							
							
							
							
							
							
							
							
							
							
							
							
							
							
							
							
							
							
							
							
							
							
							
							
							
							
							
							
							
							
							
							
							
							
							
							
							
							
							
							
							
							
							
							
							
							
							
							
							
							
							
							
							
							
							
							
							
							
							
							
							
							
							
							
							
							
							
							
							
							
							
							
							
							
							
							
							
							
							
							
							
							
							
							
							
							
							
							
							
							
							
							
							
							
							
							
							
							
							
							
							
							
							
							
							
							
							
							
							
							
							
							
							
							
							
							
							
							
							
							
							
							
							
							
							
							
							
							
							
							
							
							
							
							
							
							
							
							
							
							
							
							
							
							
							
							
							
							
							
							
							
							
							
							
							
							
							
							
							
							
							
							
							
							
							
							
							
							
							
							
							
							
							
							
							
							
							
							
							
							
							
							
							
							
							
							
							
							
							
							
							
							
							
							
							
							
							
							
							
							
							
							
							
							
							
							
							
							
							
							
							
							
							
							
							
							
							
							
							
							
							
							
							
							
							
							
							
							
							
							
							
							
							
							
							
							
							
							
							
							
							
							
							
							
							
							
							
							
							
							
							
							
							
							
							
							
							
							
							
							
							
							
							
							
							
							
							
							
							
							
							
							
							
							
							
							
							
							
							
							
							
							
							
							
							
							
							
							
							
							
							
							
							
							
							
							
							
							
							
							
							
							
							
							
							
							
							
							
							
							
							
							
							
							
							
							
							
							
							
							
							
							
							
							
							
							
							
							
							
							
							
							
							
							
							
							
							
							
							
							
							
							
							
							
							
							
							
							
							
							
							
							
							
							
							
							
							
							
							
							
							
							
							
							
							
							
							
							
							
							
							
							
							
							
							
							
							
							
							
							
							
							
							
							
							
							
							
							
							
							
							
							
							
							
							
							
							
							
							
							
							
							
							
							
							
							
							
							
							
							
							
							
							
							
							
							
							
							
							
							
							
							
							
							
							
							
							
							
							
							
							
							
							
							
							
							
							
							
							
							
							
							
							
							
							
							
							
							
							
							
							
							
							
							
							
							
							
							
							
							
							
							
							
							
							
							
							
							
							
							
							
							
							
							
							
							
							
							
							
							
							
							
							
							
							
							
							
							
							
							
							
							
							
							
							
							
							
							
							
							
							
							
							
							
							
							
							
							
							
							
							
							
							
							
							
							
							
							
							
							
							
							
							
							
							
							
							
							
							
							
							
							
							
							
							
							
							
							
							
							
							
							
							
							
							
							
							
							
							
							
							
							
							
							
							
							
							
							
							
							
							
							
							
							
							
							
							
							
							
							
							
							
							
							
							
							
							
							
							
							
							
							
							
							
							
							
							
							
							
							
							
							
							
							
							
							
							
							
							
							
							
							
							
							
							
							
							
							
							
							
							
							
							
							
							
							
							
							
							
							
							
							
							
							
							
							
							
							
							
							
							
							
							
							
							
							
							
							
							
							
							
							
							
							
							
							
							
							
							
							
							
							
							
							
							
							
							
							
							
							
							
							
							
							
							
							
							
							
							
							
							
							
							
							
							
							
							
							
							
							
							
							
							
							
							
							
							
							
							
							
							
							
							
							
							
							
							
							
							
							
							
							
							
							
							
							
							
							
							
							
							
							
							
							
							
							
							
							
							
							
							
							
							
							
							
							
							
							
							
							
							
							
							
							
							
							
							
							
							
							
							
							
							
							
							
							
							
							
							
							
							
							
							
							
							
							
							
							
							
							
							
							
							
							
							
							
							
							
							
							
							
							
							
							
							
							
							
							
							
							
							
							
							
							
							
							
							
							
							
							
							
							
							
							
							
							
							
							
							
							
							
							
							
							
							
							
							
							
							
							
							
							
							
							
							
							
							
							
							
							
							
							
							
							
							
							
							
							
							
							
							
							
							
							
							
							
							
							
							
							
						