t(s)	Id(A)	Vd(mV)	Vg(mV)	t(s)	Temp(Celsius)	Hum(%RH)	
1.000000e-03	1.001378e-07	1.000000e+03	0.000000e+00	0.000000e+00	2.500000e+01	2.500000e+01	
3.020000e-01	1.001450e-07	1.000000e+03	0.000000e+00	3.000000e-01	2.500000e+01	2.500000e+01	
6.040000e-01	1.001309e-07	1.000000e+03	0.000000e+00	6.000000e-01	2.500000e+01	2.500000e+01	
9.050000e-01	1.001566e-07	1.000000e+03	0.000000e+00	9.000000e-01	2.500000e+01	2.500000e+01	
1.207000e+00	1.001703e-07	1.000000e+03	0.000000e+00	1.200000e+00	2.500000e+01	2.500000e+01	
1.508000e+00	1.001217e-07	1.000000e+03	0.000000e+00	1.500000e+00	2.500000e+01	2.500000e+01	
1.810000e+00	1.001058e-07	1.000000e+03	0.000000e+00	1.800000e+00	2.500000e+01	2.500000e+01	
2.112000e+00	1.001737e-07	1.000000e+03	0.000000e+00	2.100000e+00	2.500000e+01	2.500000e+01	
2.413000e+00	1.001670e-07	1.000000e+03	0.000000e+00	2.400000e+00	2.500000e+01	2.500000e+01	
2.715000e+00	1.001372e-07	1.000000e+03	0.000000e+00	2.700000e+00	2.500000e+01	2.500000e+01	
3.016000e+00	1.001436e-07	1.000000e+03	0.000000e+00	3.000000e+00	2.500000e+01	2.500000e+01	
3.318000e+00	1.001707e-07	1.000000e+03	0.000000e+00	3.300000e+00	2.500000e+01	2.500000e+01	
3.619000e+00	1.001283e-07	1.000000e+03	0.000000e+00	3.600000e+00	2.500000e+01	2.500000e+01	
3.921000e+00	1.001426e-07	1.000000e+03	0.000000e+00	3.900000e+00	2.500000e+01	2.500000e+01	
4.223000e+00	1.001587e-07	1.000000e+03	0.000000e+00	4.200000e+00	2.500000e+01	2.500000e+01	
4.524000e+00	1.001611e-07	1.000000e+03	0.000000e+00	4.500000e+00	2.500000e+01	2.500000e+01	
4.826000e+00	1.001156e-07	1.000000e+03	0.000000e+00	4.800000e+00	2.500000e+01	2.500000e+01	
5.127000e+00	1.001530e-07	1.000000e+03	0.000000e+00	5.100000e+00	2.500000e+01	2.500000e+01	
5.427000e+00	1.001695e-07	1.000000e+03	0.000000e+00	5.400000e+00	2.500000e+01	2.500000e+01	
5.729000e+00	1.001703e-07	1.000000e+03	0.000000e+00	5.700000e+00	2.500000e+01	2.500000e+01	
6.031000e+00	1.001039e-07	1.000000e+03	0.000000e+00	6.000000e+00	2.500000e+01	2.500000e+01	
6.332000e+00	1.001913e-07	1.000000e+03	0.000000e+00	6.300000e+00	2.500000e+01	2.500000e+01	
6.634000e+00	1.001136e-07	1.000000e+03	0.000000e+00	6.600000e+00	2.500000e+01	2.500000e+01	
6.935000e+00	1.001234e-07	1.000000e+03	0.000000e+00	6.900000e+00	2.500000e+01	2.500000e+01	
7.237000e+00	1.001267e-07	1.000000e+03	0.000000e+00	7.200000e+00	2.500000e+01	2.500000e+01	
7.539000e+00	1.001343e-07	1.000000e+03	0.000000e+00	7.500000e+00	2.500000e+01	2.500000e+01	
7.841000e+00	1.001607e-07	1.000000e+03	0.000000e+00	7.800000e+00	2.500000e+01	2.500000e+01	
8.142000e+00	1.001256e-07	1.000000e+03	0.000000e+00	8.100000e+00	2.500000e+01	2.500000e+01	
8.444000e+00	1.001123e-07	1.000000e+03	0.000000e+00	8.400001e+00	2.500000e+01	2.500000e+01	
8.746000e+00	1.000745e-07	1.000000e+03	0.000000e+00	8.700001e+00	2.500000e+01	2.500000e+01	
9.047000e+00	1.001382e-07	1.000000e+03	0.000000e+00	9.000000e+00	2.500000e+01	2.500000e+01	
9.348000e+00	1.001428e-07	1.000000e+03	0.000000e+00	9.300000e+00	2.500000e+01	2.500000e+01	
9.649000e+00	1.000917e-07	1.000000e+03	0.000000e+00	9.600000e+00	2.500000e+01	2.500000e+01	
9.951000e+00	1.001477e-07	1.000000e+03	0.000000e+00	9.900001e+00	2.500000e+01	2.500000e+01	
1.025200e+01	1.001838e-07	1.000000e+03	0.000000e+00	1.020000e+01	2.500000e+01	2.500000e+01	
1.055400e+01	1.002019e-07	1.000000e+03	0.000000e+00	1.050000e+01	2.500000e+01	2.500000e+01	
1.085500e+01	1.001106e-07	1.000000e+03	0.000000e+00	1.080000e+01	2.500000e+01	2.500000e+01	
1.115700e+01	1.001919e-07	1.000000e+03	0.000000e+00	1.110000e+01	2.500000e+01	2.500000e+01	
1.145900e+01	1.001922e-07	1.000000e+03	0.000000e+00	1.140000e+01	2.500000e+01	2.500000e+01	
1.176100e+01	1.001187e-07	1.000000e+03	0.000000e+00	1.170000e+01	2.500000e+01	2.500000e+01	
1.206200e+01	1.001202e-07	1.000000e+03	0.000000e+00	1.200000e+01	2.500000e+01	2.500000e+01	
1.236400e+01	1.000860e-07	1.000000e+03	0.000000e+00	1.230000e+01	2.500000e+01	2.500000e+01	
1.266500e+01	1.001372e-07	1.000000e+03	0.000000e+00	1.260000e+01	2.500000e+01	2.500000e+01	
1.296700e+01	1.001535e-07	1.000000e+03	0.000000e+00	1.290000e+01	2.500000e+01	2.500000e+01	
1.326900e+01	1.001497e-07	1.000000e+03	0.000000e+00	1.320000e+01	2.500000e+01	2.500000e+01	
1.357100e+01	1.001079e-07	1.000000e+03	0.000000e+00	1.350000e+01	2.500000e+01	2.500000e+01	
1.387200e+01	1.001382e-07	1.000000e+03	0.000000e+00	1.380000e+01	2.500000e+01	2.500000e+01	
1.417400e+01	1.001488e-07	1.000000e+03	0.000000e+00	1.410000e+01	2.500000e+01	2.500000e+01	
1.447600e+01	1.001539e-07	1.000000e+03	0.000000e+00	1.440000e+01	2.500000e+01	2.500000e+01	
1.477800e+01	1.001319e-07	1.000000e+03	0.000000e+00	1.470000e+01	2.500000e+01	2.500000e+01	
1.507900e+01	1.001974e-07	1.000000e+03	0.000000e+00	1.500000e+01	2.500000e+01	2.500000e+01	
1.538100e+01	1.001502e-07	1.000000e+03	0.000000e+00	1.530000e+01	2.500000e+01	2.500000e+01	
1.568200e+01	1.001667e-07	1.000000e+03	0.000000e+00	1.560000e+01	2.500000e+01	2.500000e+01	
1.598400e+01	1.001542e-07	1.000000e+03	0.000000e+00	1.590000e+01	2.500000e+01	2.500000e+01	
1.628500e+01	1.001676e-07	1.000000e+03	0.000000e+00	1.620000e+01	2.500000e+01	2.500000e+01	
1.658700e+01	1.001635e-07	1.000000e+03	0.000000e+00	1.650000e+01	2.500000e+01	2.500000e+01	
1.688900e+01	1.001563e-07	1.000000e+03	0.000000e+00	1.680000e+01	2.500000e+01	2.500000e+01	
1.719000e+01	1.001494e-07	1.000000e+03	0.000000e+00	1.710000e+01	2.500000e+01	2.500000e+01	
1.749200e+01	1.001946e-07	1.000000e+03	0.000000e+00	1.740000e+01	2.500000e+01	2.500000e+01	
1.779400e+01	1.001213e-07	1.000000e+03	0.000000e+00	1.770000e+01	2.500000e+01	2.500000e+01	
1.809500e+01	1.001670e-07	1.000000e+03	0.000000e+00	1.800000e+01	2.500000e+01	2.500000e+01	
1.839700e+01	1.001436e-07	1.000000e+03	0.000000e+00	1.830000e+01	2.500000e+01	2.500000e+01	
1.869900e+01	1.001300e-07	1.000000e+03	0.000000e+00	1.860000e+01	2.500000e+01	2.500000e+01	
1.900000e+01	1.001310e-07	1.000000e+03	0.000000e+00	1.890000e+01	2.500000e+01	2.500000e+01	
1.930200e+01	1.000703e-07	1.000000e+03	0.000000e+00	1.920000e+01	2.500000e+01	2.500000e+01	
1.960300e+01	1.001428e-07	1.000000e+03	0.000000e+00	1.950000e+01	2.500000e+01	2.500000e+01	
1.990500e+01	1.001487e-07	1.000000e+03	0.000000e+00	1.980000e+01	2.500000e+01	2.500000e+01	
2.020600e+01	1.001388e-07	1.000000e+03	0.000000e+00	2.010000e+01	2.500000e+01	2.500000e+01	
2.050700e+01	1.001781e-07	1.000000e+03	0.000000e+00	2.040000e+01	2.500000e+01	2.500000e+01	
2.080800e+01	1.001578e-07	1.000000e+03	0.000000e+00	2.070000e+01	2.500000e+01	2.500000e+01	
2.111000e+01	1.001195e-07	1.000000e+03	0.000000e+00	2.100000e+01	2.500000e+01	2.500000e+01	
2.141100e+01	1.000943e-07	1.000000e+03	0.000000e+00	2.130000e+01	2.500000e+01	2.500000e+01	
2.171300e+01	1.001354e-07	1.000000e+03	0.000000e+00	2.160000e+01	2.500000e+01	2.500000e+01	
2.201400e+01	1.001443e-07	1.000000e+03	0.000000e+00	2.190000e+01	2.500000e+01	2.500000e+01	
2.231600e+01	1.001330e-07	1.000000e+03	0.000000e+00	2.220000e+01	2.500000e+01	2.500000e+01	
2.261800e+01	1.000935e-07	1.000000e+03	0.000000e+00	2.250000e+01	2.500000e+01	2.500000e+01	
2.291900e+01	1.001169e-07	1.000000e+03	0.000000e+00	2.280000e+01	2.500000e+01	2.500000e+01	
2.322100e+01	1.001153e-07	1.000000e+03	0.000000e+00	2.310000e+01	2.500000e+01	2.500000e+01	
2.352300e+01	1.001135e-07	1.000000e+03	0.000000e+00	2.340000e+01	2.500000e+01	2.500000e+01	
2.382300e+01	1.001106e-07	1.000000e+03	0.000000e+00	2.370000e+01	2.500000e+01	2.500000e+01	
2.412500e+01	1.001159e-07	1.000000e+03	0.000000e+00	2.400000e+01	2.500000e+01	2.500000e+01	
2.442600e+01	1.000746e-07	1.000000e+03	0.000000e+00	2.430000e+01	2.500000e+01	2.500000e+01	
2.472800e+01	1.001485e-07	1.000000e+03	0.000000e+00	2.460000e+01	2.500000e+01	2.500000e+01	
2.502900e+01	1.001529e-07	1.000000e+03	0.000000e+00	2.490000e+01	2.500000e+01	2.500000e+01	
2.533100e+01	1.001497e-07	1.000000e+03	0.000000e+00	2.520000e+01	2.500000e+01	2.500000e+01	
2.563300e+01	1.001118e-07	1.000000e+03	0.000000e+00	2.550000e+01	2.500000e+01	2.500000e+01	
2.593500e+01	1.001487e-07	1.000000e+03	0.000000e+00	2.580000e+01	2.500000e+01	2.500000e+01	
2.623700e+01	1.001598e-07	1.000000e+03	0.000000e+00	2.610000e+01	2.500000e+01	2.500000e+01	
2.653800e+01	1.001683e-07	1.000000e+03	0.000000e+00	2.640000e+01	2.500000e+01	2.500000e+01	
2.684000e+01	1.001640e-07	1.000000e+03	0.000000e+00	2.670000e+01	2.500000e+01	2.500000e+01	
2.714100e+01	1.001665e-07	1.000000e+03	0.000000e+00	2.700000e+01	2.500000e+01	2.500000e+01	
2.744300e+01	1.001036e-07	1.000000e+03	0.000000e+00	2.730000e+01	2.500000e+01	2.500000e+01	
2.774500e+01	1.001423e-07	1.000000e+03	0.000000e+00	2.760000e+01	2.500000e+01	2.500000e+01	
2.804600e+01	1.001106e-07	1.000000e+03	0.000000e+00	2.790000e+01	2.500000e+01	2.500000e+01	
2.834800e+01	1.000710e-07	1.000000e+03	0.000000e+00	2.820000e+01	2.500000e+01	2.500000e+01	
2.864900e+01	1.001393e-07	1.000000e+03	0.000000e+00	2.850000e+01	2.500000e+01	2.500000e+01	
2.895100e+01	1.001518e-07	1.000000e+03	0.000000e+00	2.880000e+01	2.500000e+01	2.500000e+01	
2.925200e+01	1.001199e-07	1.000000e+03	0.000000e+00	2.910000e+01	2.500000e+01	2.500000e+01	
2.955400e+01	1.001710e-07	1.000000e+03	0.000000e+00	2.940000e+01	2.500000e+01	2.500000e+01	
2.985600e+01	1.000940e-07	1.000000e+03	0.000000e+00	2.970000e+01	2.500000e+01	2.500000e+01	
3.015700e+01	1.000997e-07	1.000000e+03	0.000000e+00	3.000000e+01	2.500000e+01	2.500000e+01	
3.045900e+01	1.001599e-07	1.000000e+03	0.000000e+00	3.030000e+01	2.500000e+01	2.500000e+01	
3.076000e+01	1.001313e-07	1.000000e+03	0.000000e+00	3.060000e+01	2.500000e+01	2.500000e+01	
3.106200e+01	1.001193e-07	1.000000e+03	0.000000e+00	3.090000e+01	2.500000e+01	2.500000e+01	
3.136400e+01	1.001247e-07	1.000000e+03	0.000000e+00	3.120000e+01	2.500000e+01	2.500000e+01	
3.166500e+01	1.001524e-07	1.000000e+03	0.000000e+00	3.150000e+01	2.500000e+01	2.500000e+01	
3.196700e+01	1.001102e-07	1.000000e+03	0.000000e+00	3.180000e+01	2.500000e+01	2.500000e+01	
3.226800e+01	1.001004e-07	1.000000e+03	0.000000e+00	3.210000e+01	2.500000e+01	2.500000e+01	
3.257000e+01	1.001445e-07	1.000000e+03	0.000000e+00	3.240000e+01	2.500000e+01	2.500000e+01	
3.287200e+01	1.001298e-07	1.000000e+03	0.000000e+00	3.270000e+01	2.500000e+01	2.500000e+01	
3.317400e+01	1.001250e-07	1.000000e+03	0.000000e+00	3.300000e+01	2.500000e+01	2.500000e+01	
3.347600e+01	1.001406e-07	1.000000e+03	0.000000e+00	3.330000e+01	2.500000e+01	2.500000e+01	
3.377800e+01	1.001171e-07	1.000000e+03	0.000000e+00	3.360000e+01	2.500000e+01	2.500000e+01	
3.407900e+01	1.001090e-07	1.000000e+03	0.000000e+00	3.390000e+01	2.500000e+01	2.500000e+01	
3.438100e+01	1.000847e-07	1.000000e+03	0.000000e+00	3.420000e+01	2.500000e+01	2.500000e+01	
3.468200e+01	1.001271e-07	1.000000e+03	0.000000e+00	3.450000e+01	2.500000e+01	2.500000e+01	
3.498400e+01	1.001015e-07	1.000000e+03	0.000000e+00	3.480000e+01	2.500000e+01	2.500000e+01	
3.528600e+01	1.000785e-07	1.000000e+03	0.000000e+00	3.510000e+01	2.500000e+01	2.500000e+01	
3.558700e+01	1.001306e-07	1.000000e+03	0.000000e+00	3.540000e+01	2.500000e+01	2.500000e+01	
3.588700e+01	1.001034e-07	1.000000e+03	0.000000e+00	3.570000e+01	2.500000e+01	2.500000e+01	
3.618900e+01	1.001103e-07	1.000000e+03	0.000000e+00	3.600000e+01	2.500000e+01	2.500000e+01	
3.649100e+01	1.001652e-07	1.000000e+03	0.000000e+00	3.630000e+01	2.500000e+01	2.500000e+01	
3.679000e+01	1.001304e-07	1.000000e+03	0.000000e+00	3.660000e+01	2.500000e+01	2.500000e+01	
3.709100e+01	1.001036e-07	1.000000e+03	0.000000e+00	3.690000e+01	2.500000e+01	2.500000e+01	
3.739100e+01	1.002009e-07	1.000000e+03	0.000000e+00	3.720000e+01	2.500000e+01	2.500000e+01	
3.769100e+01	1.001423e-07	1.000000e+03	0.000000e+00	3.750000e+01	2.500000e+01	2.500000e+01	
3.799100e+01	1.000980e-07	1.000000e+03	0.000000e+00	3.780000e+01	2.500000e+01	2.500000e+01	
3.829100e+01	1.000676e-07	1.000000e+03	0.000000e+00	3.810000e+01	2.500000e+01	2.500000e+01	
3.859100e+01	1.001319e-07	1.000000e+03	0.000000e+00	3.840000e+01	2.500000e+01	2.500000e+01	
3.889100e+01	1.001809e-07	1.000000e+03	0.000000e+00	3.870000e+01	2.500000e+01	2.500000e+01	
3.919100e+01	1.001166e-07	1.000000e+03	0.000000e+00	3.900000e+01	2.500000e+01	2.500000e+01	
3.949100e+01	1.001565e-07	1.000000e+03	0.000000e+00	3.930000e+01	2.500000e+01	2.500000e+01	
3.979100e+01	1.002042e-07	1.000000e+03	0.000000e+00	3.960000e+01	2.500000e+01	2.500000e+01	
4.009100e+01	1.001313e-07	1.000000e+03	0.000000e+00	3.990000e+01	2.500000e+01	2.500000e+01	
4.039100e+01	1.001220e-07	1.000000e+03	0.000000e+00	4.020000e+01	2.500000e+01	2.500000e+01	
4.069200e+01	1.001301e-07	1.000000e+03	0.000000e+00	4.050000e+01	2.500000e+01	2.500000e+01	
4.099200e+01	1.000752e-07	1.000000e+03	0.000000e+00	4.080000e+01	2.500000e+01	2.500000e+01	
4.129200e+01	1.001289e-07	1.000000e+03	0.000000e+00	4.110000e+01	2.500000e+01	2.500000e+01	
4.159200e+01	1.001364e-07	1.000000e+03	0.000000e+00	4.140000e+01	2.500000e+01	2.500000e+01	
4.189200e+01	1.001025e-07	1.000000e+03	0.000000e+00	4.170000e+01	2.500000e+01	2.500000e+01	
4.219200e+01	1.000621e-07	1.000000e+03	0.000000e+00	4.200000e+01	2.500000e+01	2.500000e+01	
4.249200e+01	1.001174e-07	1.000000e+03	0.000000e+00	4.230000e+01	2.500000e+01	2.500000e+01	
4.279200e+01	1.001638e-07	1.000000e+03	0.000000e+00	4.260000e+01	2.500000e+01	2.500000e+01	
4.309200e+01	1.001064e-07	1.000000e+03	0.000000e+00	4.290000e+01	2.500000e+01	2.500000e+01	
4.339200e+01	1.000985e-07	1.000000e+03	0.000000e+00	4.320000e+01	2.500000e+01	2.500000e+01	
4.369200e+01	1.001737e-07	1.000000e+03	0.000000e+00	4.350000e+01	2.500000e+01	2.500000e+01	
4.399200e+01	1.001174e-07	1.000000e+03	0.000000e+00	4.380000e+01	2.500000e+01	2.500000e+01	
4.429300e+01	1.000872e-07	1.000000e+03	0.000000e+00	4.410000e+01	2.500000e+01	2.500000e+01	
4.459300e+01	1.000913e-07	1.000000e+03	0.000000e+00	4.440000e+01	2.500000e+01	2.500000e+01	
4.489300e+01	1.001084e-07	1.000000e+03	0.000000e+00	4.470000e+01	2.500000e+01	2.500000e+01	
4.519300e+01	1.001372e-07	1.000000e+03	0.000000e+00	4.500000e+01	2.500000e+01	2.500000e+01	
4.549300e+01	1.001030e-07	1.000000e+03	0.000000e+00	4.530000e+01	2.500000e+01	2.500000e+01	
4.579300e+01	1.001375e-07	1.000000e+03	0.000000e+00	4.560000e+01	2.500000e+01	2.500000e+01	
4.609300e+01	1.001505e-07	1.000000e+03	0.000000e+00	4.590000e+01	2.500000e+01	2.500000e+01	
4.639300e+01	1.001034e-07	1.000000e+03	0.000000e+00	4.620000e+01	2.500000e+01	2.500000e+01	
4.669300e+01	1.001367e-07	1.000000e+03	0.000000e+00	4.650000e+01	2.500000e+01	2.500000e+01	
4.699300e+01	1.001530e-07	1.000000e+03	0.000000e+00	4.680000e+01	2.500000e+01	2.500000e+01	
4.729300e+01	1.001070e-07	1.000000e+03	0.000000e+00	4.710000e+01	2.500000e+01	2.500000e+01	
4.759300e+01	1.001127e-07	1.000000e+03	0.000000e+00	4.740000e+01	2.500000e+01	2.500000e+01	
4.789400e+01	1.001719e-07	1.000000e+03	0.000000e+00	4.770000e+01	2.500000e+01	2.500000e+01	
4.819400e+01	1.001108e-07	1.000000e+03	0.000000e+00	4.800000e+01	2.500000e+01	2.500000e+01	
4.849400e+01	1.001183e-07	1.000000e+03	0.000000e+00	4.830000e+01	2.500000e+01	2.500000e+01	
4.879400e+01	1.001412e-07	1.000000e+03	0.000000e+00	4.860000e+01	2.500000e+01	2.500000e+01	
4.909400e+01	1.001926e-07	1.000000e+03	0.000000e+00	4.890000e+01	2.500000e+01	2.500000e+01	
4.939600e+01	1.001947e-07	1.000000e+03	0.000000e+00	4.920000e+01	2.500000e+01	2.500000e+01	
4.969700e+01	1.001910e-07	1.000000e+03	0.000000e+00	4.950000e+01	2.500000e+01	2.500000e+01	
4.999900e+01	1.001306e-07	1.000000e+03	0.000000e+00	4.980000e+01	2.500000e+01	2.500000e+01	
5.030100e+01	1.001103e-07	1.000000e+03	0.000000e+00	5.010000e+01	2.500000e+01	2.500000e+01	
5.060200e+01	1.001064e-07	1.000000e+03	0.000000e+00	5.040000e+01	2.500000e+01	2.500000e+01	
5.090400e+01	1.001114e-07	1.000000e+03	0.000000e+00	5.070000e+01	2.500000e+01	2.500000e+01	
5.120500e+01	1.001423e-07	1.000000e+03	0.000000e+00	5.100000e+01	2.500000e+01	2.500000e+01	
5.150700e+01	1.001217e-07	1.000000e+03	0.000000e+00	5.130000e+01	2.500000e+01	2.500000e+01	
5.180900e+01	1.001330e-07	1.000000e+03	0.000000e+00	5.160000e+01	2.500000e+01	2.500000e+01	
5.211000e+01	1.001292e-07	1.000000e+03	0.000000e+00	5.190000e+01	2.500000e+01	2.500000e+01	
5.241200e+01	1.001511e-07	1.000000e+03	0.000000e+00	5.220000e+01	2.500000e+01	2.500000e+01	
5.271300e+01	1.001670e-07	1.000000e+03	0.000000e+00	5.250000e+01	2.500000e+01	2.500000e+01	
5.301500e+01	1.001255e-07	1.000000e+03	0.000000e+00	5.280000e+01	2.500000e+01	2.500000e+01	
5.331600e+01	1.001238e-07	1.000000e+03	0.000000e+00	5.310000e+01	2.500000e+01	2.500000e+01	
5.361800e+01	1.001058e-07	1.000000e+03	0.000000e+00	5.340000e+01	2.500000e+01	2.500000e+01	
5.392000e+01	1.001078e-07	1.000000e+03	0.000000e+00	5.370000e+01	2.500000e+01	2.500000e+01	
5.422100e+01	1.001258e-07	1.000000e+03	0.000000e+00	5.400000e+01	2.500000e+01	2.500000e+01	
5.452300e+01	1.001450e-07	1.000000e+03	0.000000e+00	5.430000e+01	2.500000e+01	2.500000e+01	
5.482400e+01	1.001228e-07	1.000000e+03	0.000000e+00	5.460000e+01	2.500000e+01	2.500000e+01	
5.512600e+01	1.001307e-07	1.000000e+03	0.000000e+00	5.490000e+01	2.500000e+01	2.500000e+01	
5.542800e+01	1.001301e-07	1.000000e+03	0.000000e+00	5.520000e+01	2.500000e+01	2.500000e+01	
5.573000e+01	1.001725e-07	1.000000e+03	0.000000e+00	5.550000e+01	2.500000e+01	2.500000e+01	
5.603100e+01	1.001129e-07	1.000000e+03	0.000000e+00	5.580000e+01	2.500000e+01	2.500000e+01	
5.633300e+01	1.000835e-07	1.000000e+03	0.000000e+00	5.610000e+01	2.500000e+01	2.500000e+01	
5.663300e+01	1.001991e-07	1.000000e+03	0.000000e+00	5.640000e+01	2.500000e+01	2.500000e+01	
5.693400e+01	1.001307e-07	1.000000e+03	0.000000e+00	5.670000e+01	2.500000e+01	2.500000e+01	
5.723500e+01	1.001758e-07	1.000000e+03	0.000000e+00	5.700000e+01	2.500000e+01	2.500000e+01	
5.753600e+01	1.000956e-07	1.000000e+03	0.000000e+00	5.730000e+01	2.500000e+01	2.500000e+01	
5.783800e+01	1.001141e-07	1.000000e+03	0.000000e+00	5.760000e+01	2.500000e+01	2.500000e+01	
5.813900e+01	1.001220e-07	1.000000e+03	0.000000e+00	5.790000e+01	2.500000e+01	2.500000e+01	
5.844100e+01	1.001258e-07	1.000000e+03	0.000000e+00	5.820000e+01	2.500000e+01	2.500000e+01	
5.874300e+01	1.000944e-07	1.000000e+03	0.000000e+00	5.850000e+01	2.500000e+01	2.500000e+01	
5.904500e+01	1.001367e-07	1.000000e+03	0.000000e+00	5.880000e+01	2.500000e+01	2.500000e+01	
5.934600e+01	1.001556e-07	1.000000e+03	0.000000e+00	5.910000e+01	2.500000e+01	2.500000e+01	
5.964800e+01	1.001875e-07	1.000000e+03	0.000000e+00	5.940000e+01	2.500000e+01	2.500000e+01	
5.994900e+01	1.001406e-07	1.000000e+03	0.000000e+00	5.970000e+01	2.500000e+01	2.500000e+01	
6.025100e+01	1.000986e-07	1.000000e+03	0.000000e+00	6.000000e+01	2.500000e+01	2.500000e+01	
6.055200e+01	1.001345e-07	1.000000e+03	0.000000e+00	6.030000e+01	2.500000e+01	2.500000e+01	
6.085400e+01	1.001204e-07	1.000000e+03	0.000000e+00	6.060000e+01	2.500000e+01	2.500000e+01	
6.115600e+01	1.000788e-07	1.000000e+03	0.000000e+00	6.090000e+01	2.500000e+01	2.500000e+01	
6.145800e+01	1.001202e-07	1.000000e+03	0.000000e+00	6.120000e+01	2.500000e+01	2.500000e+01	
6.176000e+01	1.001349e-07	1.000000e+03	0.000000e+00	6.150000e+01	2.500000e+01	2.500000e+01	
6.206100e+01	1.001303e-07	1.000000e+03	0.000000e+00	6.180000e+01	2.500000e+01	2.500000e+01	
6.236300e+01	1.001391e-07	1.000000e+03	0.000000e+00	6.210000e+01	2.500000e+01	2.500000e+01	
6.266500e+01	1.001060e-07	1.000000e+03	0.000000e+00	6.240000e+01	2.500000e+01	2.500000e+01	
6.296600e+01	1.001465e-07	1.000000e+03	0.000000e+00	6.270000e+01	2.500000e+01	2.500000e+01	
6.326800e+01	1.001382e-07	1.000000e+03	0.000000e+00	6.300000e+01	2.500000e+01	2.500000e+01	
6.357000e+01	1.001550e-07	1.000000e+03	0.000000e+00	6.330000e+01	2.500000e+01	2.500000e+01	
6.387100e+01	1.001244e-07	1.000000e+03	0.000000e+00	6.360000e+01	2.500000e+01	2.500000e+01	
6.417300e+01	1.000946e-07	1.000000e+03	0.000000e+00	6.390000e+01	2.500000e+01	2.500000e+01	
6.447500e+01	1.000892e-07	1.000000e+03	0.000000e+00	6.420000e+01	2.500000e+01	2.500000e+01	
6.477700e+01	1.001638e-07	1.000000e+03	0.000000e+00	6.450000e+01	2.500000e+01	2.500000e+01	
