t(s)	Id(A)	Vd(mV)	Vg(mV)	t(s)	Temp(Celsius)	Hum(%RH)	
1.000000e-03	1.001375e-07	1.000000e+03	0.000000e+00	0.000000e+00	2.500000e+01	2.500000e+01	
3.020000e-01	1.001547e-07	1.000000e+03	0.000000e+00	3.000000e-01	2.500000e+01	2.500000e+01	
6.040000e-01	1.001316e-07	1.000000e+03	0.000000e+00	6.000000e-01	2.500000e+01	2.500000e+01	
9.050000e-01	1.001406e-07	1.000000e+03	0.000000e+00	9.000000e-01	2.500000e+01	2.500000e+01	
1.207000e+00	1.001442e-07	1.000000e+03	0.000000e+00	1.200000e+00	2.500000e+01	2.500000e+01	
1.508000e+00	1.001300e-07	1.000000e+03	0.000000e+00	1.500000e+00	2.500000e+01	2.500000e+01	
1.810000e+00	1.002067e-07	1.000000e+03	0.000000e+00	1.800000e+00	2.500000e+01	2.500000e+01	
2.112000e+00	1.001309e-07	1.000000e+03	0.000000e+00	2.100000e+00	2.500000e+01	2.500000e+01	
2.413000e+00	1.001165e-07	1.000000e+03	0.000000e+00	2.400000e+00	2.500000e+01	2.500000e+01	
2.715000e+00	1.001160e-07	1.000000e+03	0.000000e+00	2.700000e+00	2.500000e+01	2.500000e+01	
3.016000e+00	1.001454e-07	1.000000e+03	0.000000e+00	3.000000e+00	2.500000e+01	2.500000e+01	
3.318000e+00	1.001285e-07	1.000000e+03	0.000000e+00	3.300000e+00	2.500000e+01	2.500000e+01	
3.619000e+00	1.001979e-07	1.000000e+03	0.000000e+00	3.600000e+00	2.500000e+01	2.500000e+01	
3.921000e+00	1.001265e-07	1.000000e+03	0.000000e+00	3.900000e+00	2.500000e+01	2.500000e+01	
4.223000e+00	1.001539e-07	1.000000e+03	0.000000e+00	4.200000e+00	2.500000e+01	2.500000e+01	
4.524000e+00	1.001427e-07	1.000000e+03	0.000000e+00	4.500000e+00	2.500000e+01	2.500000e+01	
4.826000e+00	1.001306e-07	1.000000e+03	0.000000e+00	4.800000e+00	2.500000e+01	2.500000e+01	
5.127000e+00	1.001405e-07	1.000000e+03	0.000000e+00	5.100000e+00	2.500000e+01	2.500000e+01	
5.429000e+00	1.001153e-07	1.000000e+03	0.000000e+00	5.400000e+00	2.500000e+01	2.500000e+01	
5.731000e+00	1.001409e-07	1.000000e+03	0.000000e+00	5.700000e+00	2.500000e+01	2.500000e+01	
6.032000e+00	1.001386e-07	1.000000e+03	0.000000e+00	6.000000e+00	2.500000e+01	2.500000e+01	
6.334000e+00	1.001551e-07	1.000000e+03	0.000000e+00	6.300000e+00	2.500000e+01	2.500000e+01	
6.635000e+00	1.001246e-07	1.000000e+03	0.000000e+00	6.600000e+00	2.500000e+01	2.500000e+01	
6.937000e+00	1.001234e-07	1.000000e+03	0.000000e+00	6.900000e+00	2.500000e+01	2.500000e+01	
7.238000e+00	1.001622e-07	1.000000e+03	0.000000e+00	7.200000e+00	2.500000e+01	2.500000e+01	
7.541000e+00	1.001346e-07	1.000000e+03	0.000000e+00	7.500000e+00	2.500000e+01	2.500000e+01	
7.842000e+00	1.001064e-07	1.000000e+03	0.000000e+00	7.800000e+00	2.500000e+01	2.500000e+01	
8.144000e+00	1.001592e-07	1.000000e+03	0.000000e+00	8.100000e+00	2.500000e+01	2.500000e+01	
8.445000e+00	1.001234e-07	1.000000e+03	0.000000e+00	8.400001e+00	2.500000e+01	2.500000e+01	
8.747000e+00	1.001352e-07	1.000000e+03	0.000000e+00	8.700001e+00	2.500000e+01	2.500000e+01	
9.048000e+00	1.001450e-07	1.000000e+03	0.000000e+00	9.000000e+00	2.500000e+01	2.500000e+01	
9.350000e+00	1.001478e-07	1.000000e+03	0.000000e+00	9.300000e+00	2.500000e+01	2.500000e+01	
9.652000e+00	1.002018e-07	1.000000e+03	0.000000e+00	9.600000e+00	2.500000e+01	2.500000e+01	
9.953000e+00	1.001772e-07	1.000000e+03	0.000000e+00	9.900001e+00	2.500000e+01	2.500000e+01	
1.025500e+01	1.001622e-07	1.000000e+03	0.000000e+00	1.020000e+01	2.500000e+01	2.500000e+01	
1.055600e+01	1.001291e-07	1.000000e+03	0.000000e+00	1.050000e+01	2.500000e+01	2.500000e+01	
1.085800e+01	1.001721e-07	1.000000e+03	0.000000e+00	1.080000e+01	2.500000e+01	2.500000e+01	
1.116000e+01	1.001382e-07	1.000000e+03	0.000000e+00	1.110000e+01	2.500000e+01	2.500000e+01	
1.146100e+01	1.000427e-07	1.000000e+03	0.000000e+00	1.140000e+01	2.500000e+01	2.500000e+01	
1.176300e+01	1.001587e-07	1.000000e+03	0.000000e+00	1.170000e+01	2.500000e+01	2.500000e+01	
1.206400e+01	1.001373e-07	1.000000e+03	0.000000e+00	1.200000e+01	2.500000e+01	2.500000e+01	
1.236400e+01	1.001518e-07	1.000000e+03	0.000000e+00	1.230000e+01	2.500000e+01	2.500000e+01	
1.266600e+01	1.001352e-07	1.000000e+03	0.000000e+00	1.260000e+01	2.500000e+01	2.500000e+01	
1.296800e+01	1.001481e-07	1.000000e+03	0.000000e+00	1.290000e+01	2.500000e+01	2.500000e+01	
1.326900e+01	1.001470e-07	1.000000e+03	0.000000e+00	1.320000e+01	2.500000e+01	2.500000e+01	
1.356900e+01	1.001491e-07	1.000000e+03	0.000000e+00	1.350000e+01	2.500000e+01	2.500000e+01	
1.387100e+01	1.002048e-07	1.000000e+03	0.000000e+00	1.380000e+01	2.500000e+01	2.500000e+01	
1.417300e+01	1.001426e-07	1.000000e+03	0.000000e+00	1.410000e+01	2.500000e+01	2.500000e+01	
1.447400e+01	1.001298e-07	1.000000e+03	0.000000e+00	1.440000e+01	2.500000e+01	2.500000e+01	
1.477600e+01	1.001548e-07	1.000000e+03	0.000000e+00	1.470000e+01	2.500000e+01	2.500000e+01	
1.507800e+01	1.001253e-07	1.000000e+03	0.000000e+00	1.500000e+01	2.500000e+01	2.500000e+01	
1.537900e+01	1.001240e-07	1.000000e+03	0.000000e+00	1.530000e+01	2.500000e+01	2.500000e+01	
1.568100e+01	1.001256e-07	1.000000e+03	0.000000e+00	1.560000e+01	2.500000e+01	2.500000e+01	
1.598200e+01	1.001240e-07	1.000000e+03	0.000000e+00	1.590000e+01	2.500000e+01	2.500000e+01	
1.628400e+01	1.001298e-07	1.000000e+03	0.000000e+00	1.620000e+01	2.500000e+01	2.500000e+01	
1.658600e+01	1.001490e-07	1.000000e+03	0.000000e+00	1.650000e+01	2.500000e+01	2.500000e+01	
1.688700e+01	1.001237e-07	1.000000e+03	0.000000e+00	1.680000e+01	2.500000e+01	2.500000e+01	
1.718900e+01	1.001548e-07	1.000000e+03	0.000000e+00	1.710000e+01	2.500000e+01	2.500000e+01	
1.749000e+01	1.001388e-07	1.000000e+03	0.000000e+00	1.740000e+01	2.500000e+01	2.500000e+01	
1.779200e+01	1.001130e-07	1.000000e+03	0.000000e+00	1.770000e+01	2.500000e+01	2.500000e+01	
1.809400e+01	1.000995e-07	1.000000e+03	0.000000e+00	1.800000e+01	2.500000e+01	2.500000e+01	
1.839600e+01	1.000986e-07	1.000000e+03	0.000000e+00	1.830000e+01	2.500000e+01	2.500000e+01	
1.869800e+01	1.001625e-07	1.000000e+03	0.000000e+00	1.860000e+01	2.500000e+01	2.500000e+01	
1.899900e+01	1.001336e-07	1.000000e+03	0.000000e+00	1.890000e+01	2.500000e+01	2.500000e+01	
1.930100e+01	1.001430e-07	1.000000e+03	0.000000e+00	1.920000e+01	2.500000e+01	2.500000e+01	
1.960200e+01	1.000946e-07	1.000000e+03	0.000000e+00	1.950000e+01	2.500000e+01	2.500000e+01	
1.990400e+01	1.001511e-07	1.000000e+03	0.000000e+00	1.980000e+01	2.500000e+01	2.500000e+01	
2.020500e+01	1.001303e-07	1.000000e+03	0.000000e+00	2.010000e+01	2.500000e+01	2.500000e+01	
2.050700e+01	1.001282e-07	1.000000e+03	0.000000e+00	2.040000e+01	2.500000e+01	2.500000e+01	
2.080900e+01	1.001217e-07	1.000000e+03	0.000000e+00	2.070000e+01	2.500000e+01	2.500000e+01	
2.111000e+01	1.001066e-07	1.000000e+03	0.000000e+00	2.100000e+01	2.500000e+01	2.500000e+01	
2.141200e+01	1.001153e-07	1.000000e+03	0.000000e+00	2.130000e+01	2.500000e+01	2.500000e+01	
2.171300e+01	1.001042e-07	1.000000e+03	0.000000e+00	2.160000e+01	2.500000e+01	2.500000e+01	
2.201500e+01	1.001364e-07	1.000000e+03	0.000000e+00	2.190000e+01	2.500000e+01	2.500000e+01	
2.231700e+01	1.001289e-07	1.000000e+03	0.000000e+00	2.220000e+01	2.500000e+01	2.500000e+01	
2.261900e+01	1.001330e-07	1.000000e+03	0.000000e+00	2.250000e+01	2.500000e+01	2.500000e+01	
2.292000e+01	1.001247e-07	1.000000e+03	0.000000e+00	2.280000e+01	2.500000e+01	2.500000e+01	
2.322200e+01	1.001147e-07	1.000000e+03	0.000000e+00	2.310000e+01	2.500000e+01	2.500000e+01	
2.352300e+01	1.001394e-07	1.000000e+03	0.000000e+00	2.340000e+01	2.500000e+01	2.500000e+01	
2.382500e+01	1.001402e-07	1.000000e+03	0.000000e+00	2.370000e+01	2.500000e+01	2.500000e+01	
2.412700e+01	1.001280e-07	1.000000e+03	0.000000e+00	2.400000e+01	2.500000e+01	2.500000e+01	
2.442700e+01	1.000919e-07	1.000000e+03	0.000000e+00	2.430000e+01	2.500000e+01	2.500000e+01	
2.472800e+01	1.001264e-07	1.000000e+03	0.000000e+00	2.460000e+01	2.500000e+01	2.500000e+01	
2.503000e+01	1.001198e-07	1.000000e+03	0.000000e+00	2.490000e+01	2.500000e+01	2.500000e+01	
2.533200e+01	1.001271e-07	1.000000e+03	0.000000e+00	2.520000e+01	2.500000e+01	2.500000e+01	
2.563300e+01	1.001094e-07	1.000000e+03	0.000000e+00	2.550000e+01	2.500000e+01	2.500000e+01	
2.593600e+01	1.001796e-07	1.000000e+03	0.000000e+00	2.580000e+01	2.500000e+01	2.500000e+01	
2.623700e+01	1.001926e-07	1.000000e+03	0.000000e+00	2.610000e+01	2.500000e+01	2.500000e+01	
2.653900e+01	1.001364e-07	1.000000e+03	0.000000e+00	2.640000e+01	2.500000e+01	2.500000e+01	
2.684000e+01	1.001406e-07	1.000000e+03	0.000000e+00	2.670000e+01	2.500000e+01	2.500000e+01	
2.714200e+01	1.001031e-07	1.000000e+03	0.000000e+00	2.700000e+01	2.500000e+01	2.500000e+01	
2.744300e+01	1.001488e-07	1.000000e+03	0.000000e+00	2.730000e+01	2.500000e+01	2.500000e+01	
2.774600e+01	1.001497e-07	1.000000e+03	0.000000e+00	2.760000e+01	2.500000e+01	2.500000e+01	
2.804700e+01	1.000621e-07	1.000000e+03	0.000000e+00	2.790000e+01	2.500000e+01	2.500000e+01	
2.834900e+01	1.001583e-07	1.000000e+03	0.000000e+00	2.820000e+01	2.500000e+01	2.500000e+01	
2.865100e+01	1.000857e-07	1.000000e+03	0.000000e+00	2.850000e+01	2.500000e+01	2.500000e+01	
2.895200e+01	1.001324e-07	1.000000e+03	0.000000e+00	2.880000e+01	2.500000e+01	2.500000e+01	
2.925400e+01	1.000971e-07	1.000000e+03	0.000000e+00	2.910000e+01	2.500000e+01	2.500000e+01	
2.955600e+01	1.001520e-07	1.000000e+03	0.000000e+00	2.940000e+01	2.500000e+01	2.500000e+01	
2.985800e+01	1.001626e-07	1.000000e+03	0.000000e+00	2.970000e+01	2.500000e+01	2.500000e+01	
3.015900e+01	1.001028e-07	1.000000e+03	0.000000e+00	3.000000e+01	2.500000e+01	2.500000e+01	
3.046100e+01	1.001455e-07	1.000000e+03	0.000000e+00	3.030000e+01	2.500000e+01	2.500000e+01	
3.076200e+01	1.001390e-07	1.000000e+03	0.000000e+00	3.060000e+01	2.500000e+01	2.500000e+01	
3.106400e+01	1.001226e-07	1.000000e+03	0.000000e+00	3.090000e+01	2.500000e+01	2.500000e+01	
3.136600e+01	1.001327e-07	1.000000e+03	0.000000e+00	3.120000e+01	2.500000e+01	2.500000e+01	
3.166600e+01	1.001451e-07	1.000000e+03	0.000000e+00	3.150000e+01	2.500000e+01	2.500000e+01	
3.196700e+01	1.001509e-07	1.000000e+03	0.000000e+00	3.180000e+01	2.500000e+01	2.500000e+01	
3.226900e+01	1.001361e-07	1.000000e+03	0.000000e+00	3.210000e+01	2.500000e+01	2.500000e+01	
3.257000e+01	1.001303e-07	1.000000e+03	0.000000e+00	3.240000e+01	2.500000e+01	2.500000e+01	
3.287200e+01	1.000760e-07	1.000000e+03	0.000000e+00	3.270000e+01	2.500000e+01	2.500000e+01	
3.317400e+01	1.001195e-07	1.000000e+03	0.000000e+00	3.300000e+01	2.500000e+01	2.500000e+01	
3.347600e+01	1.001145e-07	1.000000e+03	0.000000e+00	3.330000e+01	2.500000e+01	2.500000e+01	
3.377700e+01	1.001454e-07	1.000000e+03	0.000000e+00	3.360000e+01	2.500000e+01	2.500000e+01	
3.407900e+01	1.001253e-07	1.000000e+03	0.000000e+00	3.390000e+01	2.500000e+01	2.500000e+01	
3.438000e+01	1.001243e-07	1.000000e+03	0.000000e+00	3.420000e+01	2.500000e+01	2.500000e+01	
3.468200e+01	1.001451e-07	1.000000e+03	0.000000e+00	3.450000e+01	2.500000e+01	2.500000e+01	
3.498200e+01	1.001379e-07	1.000000e+03	0.000000e+00	3.480000e+01	2.500000e+01	2.500000e+01	
3.528200e+01	1.001111e-07	1.000000e+03	0.000000e+00	3.510000e+01	2.500000e+01	2.500000e+01	
3.558200e+01	1.001542e-07	1.000000e+03	0.000000e+00	3.540000e+01	2.500000e+01	2.500000e+01	
3.588200e+01	1.001340e-07	1.000000e+03	0.000000e+00	3.570000e+01	2.500000e+01	2.500000e+01	
3.618200e+01	1.001385e-07	1.000000e+03	0.000000e+00	3.600000e+01	2.500000e+01	2.500000e+01	
3.648200e+01	1.001247e-07	1.000000e+03	0.000000e+00	3.630000e+01	2.500000e+01	2.500000e+01	
3.678200e+01	1.001465e-07	1.000000e+03	0.000000e+00	3.660000e+01	2.500000e+01	2.500000e+01	
3.708300e+01	1.001470e-07	1.000000e+03	0.000000e+00	3.690000e+01	2.500000e+01	2.500000e+01	
3.738300e+01	1.001022e-07	1.000000e+03	0.000000e+00	3.720000e+01	2.500000e+01	2.500000e+01	
3.768300e+01	1.001503e-07	1.000000e+03	0.000000e+00	3.750000e+01	2.500000e+01	2.500000e+01	
3.798300e+01	1.001465e-07	1.000000e+03	0.000000e+00	3.780000e+01	2.500000e+01	2.500000e+01	
3.828300e+01	1.000974e-07	1.000000e+03	0.000000e+00	3.810000e+01	2.500000e+01	2.500000e+01	
3.858300e+01	1.001634e-07	1.000000e+03	0.000000e+00	3.840000e+01	2.500000e+01	2.500000e+01	
3.888300e+01	1.002180e-07	1.000000e+03	0.000000e+00	3.870000e+01	2.500000e+01	2.500000e+01	
3.918300e+01	1.001390e-07	1.000000e+03	0.000000e+00	3.900000e+01	2.500000e+01	2.500000e+01	
3.948300e+01	1.001193e-07	1.000000e+03	0.000000e+00	3.930000e+01	2.500000e+01	2.500000e+01	
3.978300e+01	1.001391e-07	1.000000e+03	0.000000e+00	3.960000e+01	2.500000e+01	2.500000e+01	
4.008300e+01	1.001381e-07	1.000000e+03	0.000000e+00	3.990000e+01	2.500000e+01	2.500000e+01	
4.038300e+01	1.001844e-07	1.000000e+03	0.000000e+00	4.020000e+01	2.500000e+01	2.500000e+01	
4.068400e+01	1.001286e-07	1.000000e+03	0.000000e+00	4.050000e+01	2.500000e+01	2.500000e+01	
4.098400e+01	1.001169e-07	1.000000e+03	0.000000e+00	4.080000e+01	2.500000e+01	2.500000e+01	
4.128400e+01	1.001375e-07	1.000000e+03	0.000000e+00	4.110000e+01	2.500000e+01	2.500000e+01	
4.158400e+01	1.001550e-07	1.000000e+03	0.000000e+00	4.140000e+01	2.500000e+01	2.500000e+01	
4.188400e+01	1.001231e-07	1.000000e+03	0.000000e+00	4.170000e+01	2.500000e+01	2.500000e+01	
4.218400e+01	1.001022e-07	1.000000e+03	0.000000e+00	4.200000e+01	2.500000e+01	2.500000e+01	
4.248400e+01	1.001477e-07	1.000000e+03	0.000000e+00	4.230000e+01	2.500000e+01	2.500000e+01	
4.278400e+01	1.001683e-07	1.000000e+03	0.000000e+00	4.260000e+01	2.500000e+01	2.500000e+01	
4.308400e+01	1.001193e-07	1.000000e+03	0.000000e+00	4.290000e+01	2.500000e+01	2.500000e+01	
4.338400e+01	1.001363e-07	1.000000e+03	0.000000e+00	4.320000e+01	2.500000e+01	2.500000e+01	
4.368400e+01	1.001454e-07	1.000000e+03	0.000000e+00	4.350000e+01	2.500000e+01	2.500000e+01	
4.398400e+01	1.001604e-07	1.000000e+03	0.000000e+00	4.380000e+01	2.500000e+01	2.500000e+01	
4.428500e+01	1.001403e-07	1.000000e+03	0.000000e+00	4.410000e+01	2.500000e+01	2.500000e+01	
4.458500e+01	1.000558e-07	1.000000e+03	0.000000e+00	4.440000e+01	2.500000e+01	2.500000e+01	
4.488500e+01	1.001318e-07	1.000000e+03	0.000000e+00	4.470000e+01	2.500000e+01	2.500000e+01	
4.518500e+01	1.001331e-07	1.000000e+03	0.000000e+00	4.500000e+01	2.500000e+01	2.500000e+01	
4.548500e+01	1.001015e-07	1.000000e+03	0.000000e+00	4.530000e+01	2.500000e+01	2.500000e+01	
4.578500e+01	1.000202e-07	1.000000e+03	0.000000e+00	4.560000e+01	2.500000e+01	2.500000e+01	
4.608500e+01	1.001363e-07	1.000000e+03	0.000000e+00	4.590000e+01	2.500000e+01	2.500000e+01	
4.638500e+01	1.001758e-07	1.000000e+03	0.000000e+00	4.620000e+01	2.500000e+01	2.500000e+01	
4.668500e+01	1.000953e-07	1.000000e+03	0.000000e+00	4.650000e+01	2.500000e+01	2.500000e+01	
4.698500e+01	1.001229e-07	1.000000e+03	0.000000e+00	4.680000e+01	2.500000e+01	2.500000e+01	
4.728500e+01	1.001394e-07	1.000000e+03	0.000000e+00	4.710000e+01	2.500000e+01	2.500000e+01	
4.758600e+01	1.001562e-07	1.000000e+03	0.000000e+00	4.740000e+01	2.500000e+01	2.500000e+01	
4.788800e+01	1.001262e-07	1.000000e+03	0.000000e+00	4.770000e+01	2.500000e+01	2.500000e+01	
4.819000e+01	1.000946e-07	1.000000e+03	0.000000e+00	4.800000e+01	2.500000e+01	2.500000e+01	
4.849100e+01	1.001199e-07	1.000000e+03	0.000000e+00	4.830000e+01	2.500000e+01	2.500000e+01	
4.879300e+01	1.001024e-07	1.000000e+03	0.000000e+00	4.860000e+01	2.500000e+01	2.500000e+01	
4.909400e+01	1.001132e-07	1.000000e+03	0.000000e+00	4.890000e+01	2.500000e+01	2.500000e+01	
4.939600e+01	1.001151e-07	1.000000e+03	0.000000e+00	4.920000e+01	2.500000e+01	2.500000e+01	
4.969800e+01	1.001001e-07	1.000000e+03	0.000000e+00	4.950000e+01	2.500000e+01	2.500000e+01	
4.999800e+01	1.001079e-07	1.000000e+03	0.000000e+00	4.980000e+01	2.500000e+01	2.500000e+01	
5.030000e+01	1.001135e-07	1.000000e+03	0.000000e+00	5.010000e+01	2.500000e+01	2.500000e+01	
5.060100e+01	1.001136e-07	1.000000e+03	0.000000e+00	5.040000e+01	2.500000e+01	2.500000e+01	
5.090100e+01	1.000613e-07	1.000000e+03	0.000000e+00	5.070000e+01	2.500000e+01	2.500000e+01	
5.120300e+01	1.001082e-07	1.000000e+03	0.000000e+00	5.100000e+01	2.500000e+01	2.500000e+01	
5.150400e+01	1.000836e-07	1.000000e+03	0.000000e+00	5.130000e+01	2.500000e+01	2.500000e+01	
5.180600e+01	1.001436e-07	1.000000e+03	0.000000e+00	5.160000e+01	2.500000e+01	2.500000e+01	
5.210800e+01	1.001306e-07	1.000000e+03	0.000000e+00	5.190000e+01	2.500000e+01	2.500000e+01	
5.241000e+01	1.001405e-07	1.000000e+03	0.000000e+00	5.220000e+01	2.500000e+01	2.500000e+01	
5.271100e+01	1.000826e-07	1.000000e+03	0.000000e+00	5.250000e+01	2.500000e+01	2.500000e+01	
5.301300e+01	1.001190e-07	1.000000e+03	0.000000e+00	5.280000e+01	2.500000e+01	2.500000e+01	
5.331500e+01	1.001208e-07	1.000000e+03	0.000000e+00	5.310000e+01	2.500000e+01	2.500000e+01	
5.361700e+01	1.000908e-07	1.000000e+03	0.000000e+00	5.340000e+01	2.500000e+01	2.500000e+01	
5.391800e+01	1.001156e-07	1.000000e+03	0.000000e+00	5.370000e+01	2.500000e+01	2.500000e+01	
5.422000e+01	1.001788e-07	1.000000e+03	0.000000e+00	5.400000e+01	2.500000e+01	2.500000e+01	
5.452200e+01	1.001087e-07	1.000000e+03	0.000000e+00	5.430000e+01	2.500000e+01	2.500000e+01	
5.482300e+01	1.001412e-07	1.000000e+03	0.000000e+00	5.460000e+01	2.500000e+01	2.500000e+01	
5.512500e+01	1.001252e-07	1.000000e+03	0.000000e+00	5.490000e+01	2.500000e+01	2.500000e+01	
5.542700e+01	1.000989e-07	1.000000e+03	0.000000e+00	5.520000e+01	2.500000e+01	2.500000e+01	
5.572900e+01	1.001306e-07	1.000000e+03	0.000000e+00	5.550000e+01	2.500000e+01	2.500000e+01	
5.603000e+01	1.001241e-07	1.000000e+03	0.000000e+00	5.580000e+01	2.500000e+01	2.500000e+01	
5.633200e+01	1.001150e-07	1.000000e+03	0.000000e+00	5.610000e+01	2.500000e+01	2.500000e+01	
5.663300e+01	1.001484e-07	1.000000e+03	0.000000e+00	5.640000e+01	2.500000e+01	2.500000e+01	
5.693500e+01	1.000796e-07	1.000000e+03	0.000000e+00	5.670000e+01	2.500000e+01	2.500000e+01	
5.723700e+01	1.001443e-07	1.000000e+03	0.000000e+00	5.700000e+01	2.500000e+01	2.500000e+01	
5.753800e+01	1.000581e-07	1.000000e+03	0.000000e+00	5.730000e+01	2.500000e+01	2.500000e+01	
5.784000e+01	1.001330e-07	1.000000e+03	0.000000e+00	5.760000e+01	2.500000e+01	2.500000e+01	
5.814200e+01	1.001180e-07	1.000000e+03	0.000000e+00	5.790000e+01	2.500000e+01	2.500000e+01	
5.844300e+01	1.000973e-07	1.000000e+03	0.000000e+00	5.820000e+01	2.500000e+01	2.500000e+01	
5.874500e+01	1.001201e-07	1.000000e+03	0.000000e+00	5.850000e+01	2.500000e+01	2.500000e+01	
5.904700e+01	1.001030e-07	1.000000e+03	0.000000e+00	5.880000e+01	2.500000e+01	2.500000e+01	
5.934800e+01	1.002045e-07	1.000000e+03	0.000000e+00	5.910000e+01	2.500000e+01	2.500000e+01	
5.965000e+01	1.001103e-07	1.000000e+03	0.000000e+00	5.940000e+01	2.500000e+01	2.500000e+01	
5.995100e+01	1.001199e-07	1.000000e+03	0.000000e+00	5.970000e+01	2.500000e+01	2.500000e+01	
6.025300e+01	1.001322e-07	1.000000e+03	0.000000e+00	6.000000e+01	2.500000e+01	2.500000e+01	
6.055400e+01	1.001443e-07	1.000000e+03	0.000000e+00	6.030000e+01	2.500000e+01	2.500000e+01	
6.085600e+01	1.000967e-07	1.000000e+03	0.000000e+00	6.060000e+01	2.500000e+01	2.500000e+01	
6.115800e+01	1.000576e-07	1.000000e+03	0.000000e+00	6.090000e+01	2.500000e+01	2.500000e+01	
6.145900e+01	1.001241e-07	1.000000e+03	0.000000e+00	6.120000e+01	2.500000e+01	2.500000e+01	
6.176100e+01	1.000889e-07	1.000000e+03	0.000000e+00	6.150000e+01	2.500000e+01	2.500000e+01	
6.206200e+01	1.001150e-07	1.000000e+03	0.000000e+00	6.180000e+01	2.500000e+01	2.500000e+01	
6.236400e+01	1.001477e-07	1.000000e+03	0.000000e+00	6.210000e+01	2.500000e+01	2.500000e+01	
6.266600e+01	1.001319e-07	1.000000e+03	0.000000e+00	6.240000e+01	2.500000e+01	2.500000e+01	
6.296800e+01	1.001052e-07	1.000000e+03	0.000000e+00	6.270000e+01	2.500000e+01	2.500000e+01	
6.326900e+01	1.001434e-07	1.000000e+03	0.000000e+00	6.300000e+01	2.500000e+01	2.500000e+01	
6.357100e+01	1.001082e-07	1.000000e+03	0.000000e+00	6.330000e+01	2.500000e+01	2.500000e+01	
6.387200e+01	1.000829e-07	1.000000e+03	0.000000e+00	6.360000e+01	2.500000e+01	2.500000e+01	
6.417400e+01	1.001141e-07	1.000000e+03	0.000000e+00	6.390000e+01	2.500000e+01	2.500000e+01	
6.447600e+01	1.001282e-07	1.000000e+03	0.000000e+00	6.420000e+01	2.500000e+01	2.500000e+01	
6.477800e+01	1.000746e-07	1.000000e+03	0.000000e+00	6.450000e+01	2.500000e+01	2.500000e+01	
