t(s)	Id(A)	Vd(mV)	Vg(mV)	t(s)	Temp(Celsius)	Hum(%RH)	
1.000000e-03	1.001405e-07	1.000000e+03	0.000000e+00	0.000000e+00	2.500000e+01	2.500000e+01	
3.020000e-01	1.001698e-07	1.000000e+03	0.000000e+00	3.000000e-01	2.500000e+01	2.500000e+01	
6.040000e-01	1.000898e-07	1.000000e+03	0.000000e+00	6.000000e-01	2.500000e+01	2.500000e+01	
9.060000e-01	1.001616e-07	1.000000e+03	0.000000e+00	9.000000e-01	2.500000e+01	2.500000e+01	
1.208000e+00	1.001343e-07	1.000000e+03	0.000000e+00	1.200000e+00	2.500000e+01	2.500000e+01	
1.509000e+00	1.001339e-07	1.000000e+03	0.000000e+00	1.500000e+00	2.500000e+01	2.500000e+01	
1.811000e+00	1.001857e-07	1.000000e+03	0.000000e+00	1.800000e+00	2.500000e+01	2.500000e+01	
2.113000e+00	1.001436e-07	1.000000e+03	0.000000e+00	2.100000e+00	2.500000e+01	2.500000e+01	
2.414000e+00	1.001288e-07	1.000000e+03	0.000000e+00	2.400000e+00	2.500000e+01	2.500000e+01	
2.716000e+00	1.001460e-07	1.000000e+03	0.000000e+00	2.700000e+00	2.500000e+01	2.500000e+01	
3.017000e+00	1.002078e-07	1.000000e+03	0.000000e+00	3.000000e+00	2.500000e+01	2.500000e+01	
3.319000e+00	1.001318e-07	1.000000e+03	0.000000e+00	3.300000e+00	2.500000e+01	2.500000e+01	
3.620000e+00	1.001292e-07	1.000000e+03	0.000000e+00	3.600000e+00	2.500000e+01	2.500000e+01	
3.922000e+00	1.001159e-07	1.000000e+03	0.000000e+00	3.900000e+00	2.500000e+01	2.500000e+01	
4.224000e+00	1.001566e-07	1.000000e+03	0.000000e+00	4.200000e+00	2.500000e+01	2.500000e+01	
4.525000e+00	1.001348e-07	1.000000e+03	0.000000e+00	4.500000e+00	2.500000e+01	2.500000e+01	
4.827000e+00	1.001431e-07	1.000000e+03	0.000000e+00	4.800000e+00	2.500000e+01	2.500000e+01	
5.128000e+00	1.001477e-07	1.000000e+03	0.000000e+00	5.100000e+00	2.500000e+01	2.500000e+01	
5.430000e+00	1.001295e-07	1.000000e+03	0.000000e+00	5.400000e+00	2.500000e+01	2.500000e+01	
5.732000e+00	1.001342e-07	1.000000e+03	0.000000e+00	5.700000e+00	2.500000e+01	2.500000e+01	
6.033000e+00	1.001643e-07	1.000000e+03	0.000000e+00	6.000000e+00	2.500000e+01	2.500000e+01	
6.335000e+00	1.001415e-07	1.000000e+03	0.000000e+00	6.300000e+00	2.500000e+01	2.500000e+01	
6.636000e+00	1.001273e-07	1.000000e+03	0.000000e+00	6.600000e+00	2.500000e+01	2.500000e+01	
6.938000e+00	1.001315e-07	1.000000e+03	0.000000e+00	6.900000e+00	2.500000e+01	2.500000e+01	
7.238000e+00	1.001665e-07	1.000000e+03	0.000000e+00	7.200000e+00	2.500000e+01	2.500000e+01	
7.540000e+00	1.001426e-07	1.000000e+03	0.000000e+00	7.500000e+00	2.500000e+01	2.500000e+01	
7.841000e+00	1.001084e-07	1.000000e+03	0.000000e+00	7.800000e+00	2.500000e+01	2.500000e+01	
8.143000e+00	1.001300e-07	1.000000e+03	0.000000e+00	8.100000e+00	2.500000e+01	2.500000e+01	
8.444000e+00	1.001403e-07	1.000000e+03	0.000000e+00	8.400001e+00	2.500000e+01	2.500000e+01	
8.746000e+00	1.000959e-07	1.000000e+03	0.000000e+00	8.700001e+00	2.500000e+01	2.500000e+01	
9.047000e+00	1.001524e-07	1.000000e+03	0.000000e+00	9.000000e+00	2.500000e+01	2.500000e+01	
9.349000e+00	1.001385e-07	1.000000e+03	0.000000e+00	9.300000e+00	2.500000e+01	2.500000e+01	
9.651000e+00	1.001964e-07	1.000000e+03	0.000000e+00	9.600000e+00	2.500000e+01	2.500000e+01	
9.953000e+00	1.001545e-07	1.000000e+03	0.000000e+00	9.900001e+00	2.500000e+01	2.500000e+01	
1.025400e+01	1.001659e-07	1.000000e+03	0.000000e+00	1.020000e+01	2.500000e+01	2.500000e+01	
1.055600e+01	1.001538e-07	1.000000e+03	0.000000e+00	1.050000e+01	2.500000e+01	2.500000e+01	
1.085700e+01	1.001995e-07	1.000000e+03	0.000000e+00	1.080000e+01	2.500000e+01	2.500000e+01	
1.116000e+01	1.001646e-07	1.000000e+03	0.000000e+00	1.110000e+01	2.500000e+01	2.500000e+01	
1.146100e+01	1.000351e-07	1.000000e+03	0.000000e+00	1.140000e+01	2.500000e+01	2.500000e+01	
1.176300e+01	1.001270e-07	1.000000e+03	0.000000e+00	1.170000e+01	2.500000e+01	2.500000e+01	
1.206400e+01	1.001070e-07	1.000000e+03	0.000000e+00	1.200000e+01	2.500000e+01	2.500000e+01	
1.236600e+01	1.001727e-07	1.000000e+03	0.000000e+00	1.230000e+01	2.500000e+01	2.500000e+01	
1.266700e+01	1.000989e-07	1.000000e+03	0.000000e+00	1.260000e+01	2.500000e+01	2.500000e+01	
1.296900e+01	1.001346e-07	1.000000e+03	0.000000e+00	1.290000e+01	2.500000e+01	2.500000e+01	
1.327100e+01	1.001788e-07	1.000000e+03	0.000000e+00	1.320000e+01	2.500000e+01	2.500000e+01	
1.357200e+01	1.001187e-07	1.000000e+03	0.000000e+00	1.350000e+01	2.500000e+01	2.500000e+01	
1.387400e+01	1.001358e-07	1.000000e+03	0.000000e+00	1.380000e+01	2.500000e+01	2.500000e+01	
1.417500e+01	1.001453e-07	1.000000e+03	0.000000e+00	1.410000e+01	2.500000e+01	2.500000e+01	
							
							
							
							
							
							
							
							
							
							
							
							
							
							
							
							
							
							
							
							
							
							
							
							
							
							
							
							
							
							
							
							
							
							
							
							
							
							
							
							
							
							
							
							
							
							
							
							
							
							
							
							
							
							
							
							
							
							
							
							
							
							
							
							
							
							
							
							
							
							
							
							
							
							
							
							
							
							
							
							
							
							
							
							
							
							
							
							
							
							
							
							
							
							
							
							
							
							
							
							
							
							
							
							
							
							
							
							
							
							
							
							
							
							
							
							
							
							
							
							
							
							
							
							
							
							
							
							
							
							
							
							
							
							
							
							
							
							
							
							
							
							
							
							
							
							
							
							
							
							
							
							
							
							
							
							
							
							
							
							
							
							
							
							
							
							
							
							
							
							
							
							
							
							
							
							
							
							
							
							
							
							
							
							
							
							
							
							
							
							
							
							
							
							
							
							
							
							
							
							
							
							
							
							
							
							
							
							
							
							
							
							
							
							
							
							
							
							
							
							
							
							
							
							
							
							
							
							
							
							
							
							
							
							
							
							
							
							
							
							
							
							
							
							
							
							
							
							
							
							
							
							
							
							
							
							
							
							
							
							
							
							
							
							
							
							
							
							
							
							
							
							
							
							
							
							
							
							
							
							
							
							
							
							
							
							
							
							
							
							
							
							
							
							
							
							
							
							
							
							
							
							
							
							
							
							
							
							
							
							
							
							
							
							
							
							
							
							
							
							
							
							
							
							
							
							
							
							
							
							
							
							
							
							
							
							
							
							
							
							
							
							
							
							
							
							
							
							
							
							
							
							
							
							
							
							
							
							
							
							
							
							
							
							
							
							
							
							
							
							
							
							
							
							
							
							
							
							
							
							
							
							
							
							
							
							
							
							
							
							
							
							
							
							
							
							
							
							
							
							
							
							
							
							
							
							
							
							
							
							
							
							
							
							
							
							
							
							
							
							
							
							
							
							
							
							
							
							
							
							
							
							
							
							
							
							
							
							
							
							
							
							
							
							
							
							
							
							
							
							
							
							
							
							
							
							
							
							
							
							
							
							
							
							
							
							
							
							
							
							
							
							
							
							
							
							
							
							
							
							
							
							
							
							
							
							
							
							
							
							
							
							
							
							
							
							
							
							
							
							
							
							
							
							
							
							
							
							
							
							
							
							
							
							
							
							
							
							
							
							
							
							
							
							
							
							
							
							
							
							
							
							
							
							
							
							
							
							
							
							
							
							
							
							
							
							
							
							
							
							
							
							
							
							
							
							
							
							
							
							
							
							
							
							
							
							
							
							
							
							
							
							
							
							
							
							
							
							
							
							
							
							
							
							
							
							
							
							
							
							
							
							
							
							
							
							
							
							
							
							
							
							
							
							
							
							
							
							
							
							
							
							
							
							
							
							
							
							
							
							
							
							
							
							
							
							
							
							
							
							
							
							
							
							
							
							
							
							
							
							
							
							
							
							
							
							
							
							
							
							
							
							
							
							
							
							
							
							
							
							
							
							
							
							
							
							
							
							
							
							
							
							
							
							
							
							
							
							
							
							
							
							
							
							
							
							
							
							
							
							
							
							
							
							
							
							
							
							
							
							
							
							
							
							
							
							
							
							
							
							
							
							
							
							
							
							
							
							
							
							
							
							
							
							
							
							
							
							
							
							
							
							
							
							
							
							
							
							
							
							
							
							
							
							
							
							
							
							
							
							
							
							
							
							
							
							
							
							
							
							
							
							
							
							
							
							
							
							
							
							
							
							
							
							
							
							
							
							
							
							
							
							
							
							
							
							
							
							
							
							
							
							
							
							
							
							
							
							
							
							
							
							
							
							
							
							
							
							
							
							
							
							
							
							
							
							
							
							
							
							
							
							
							
							
							
							
							
							
							
							
							
							
							
							
							
							
							
							
							
							
							
							
							
							
							
							
							
							
							
							
							
							
							
							
							
							
							
							
							
							
							
							
							
							
							
							
							
							
							
							
							
							
							
							
							
							
							
							
							
							
							
							
							
							
							
							
							
							
							
							
							
							
							
							
							
							
							
							
							
							
							
							
							
							
							
							
							
							
							
							
							
							
							
							
							
							
							
							
							
							
							
							
							
							
							
							
							
							
							
							
							
							
							
							
							
							
							
							
							
							
							
							
							
							
							
							
							
							
							
							
							
							
							
							
							
							
							
							
							
							
							
							
							
							
							
							
							
							
							
							
							
							
							
							
							
							
							
							
							
							
							
							
							
							
							
							
							
							
							
							
							
							
							
							
							
							
							
							
							
							
							
							
							
							
							
							
							
							
							
							
							
							
							
							
							
							
							
							
							
							
							
							
							
							
							
							
							
							
							
							
							
							
							
							
							
							
							
							
							
							
							
							
							
							
							
							
							
							
							
							
							
							
							
							
							
							
							
							
							
							
							
							
							
							
							
							
							
							
							
							
							
							
							
							
							
							
							
							
							
							
							
							
							
							
							
							
							
							
							
							
							
							
							
							
							
							
							
							
							
							
							
							
							
							
							
							
							
							
							
							
							
							
							
							
							
							
							
							
							
							
							
							
							
							
							
							
							
							
							
							
							
							
							
							
							
							
							
							
							
							
							
							
							
							
							
							
							
							
							
							
							
							
							
							
							
							
							
							
							
							
							
							
							
							
							
							
							
							
							
							
							
							
							
							
							
							
							
							
							
							
							
							
							
							
							
							
							
							
							
							
							
							
							
							
							
							
							
							
							
							
							
							
							
							
							
							
							
							
							
							
							
							
							
							
							
							
							
							
							
							
							
							
							
							
							
							
							
							
							
							
							
							
							
							
							
							
							
							
							
							
							
							
							
							
							
							
							
							
							
							
							
							
							
							
							
							
							
							
							
							
							
							
							
							
							
							
							
							
							
							
							
							
							
							
							
							
							
							
							
							
							
							
							
							
							
							
							
							
							
							
							
							
							
							
							
							
							
							
							
							
							
							
							
							
							
							
							
							
							
							
							
							
							
							
							
							
							
							
							
							
							
							
							
							
							
							
							
							
							
							
							
							
							
							
							
							
							
							
							
							
							
							
							
							
							
							
							
							
							
							
							
							
							
							
							
							
							
							
							
							
							
							
							
							
							
							
							
							
							
							
							
							
							
							
							
							
							
							
							
							
							
							
							
							
							
							
							
							
							
							
							
							
							
							
							
							
							
							
							
							
							
							
							
							
							
							
							
							
							
							
							
							
							
							
							
							
							
							
							
							
							
							
							
							
							
							
							
							
							
							
							
							
							
							
							
							
							
							
							
							
							
							
							
							
							
							
							
							
							
							
							
							
							
							
							
							
							
							
							
							
							
							
							
							
							
							
							
							
							
							
							
							
							
							
							
							
							
							
							
							
							
							
							
							
							
							
							
							
							
							
							
							
							
							
							
							
							
							
							
							
							
							
							
							
							
							
							
							
							
							
							
							
							
							
							
							
							
							
							
							
							
							
							
							
							
							
							
							
							
							
							
							
							
							
							
							
							
							
							
							
							
							
							
							
							
							
							
							
							
							
							
							
							
							
							
							
							
							
							
							
							
							
							
							
							
							
							
							
							
							
							
							
							
							
							
							
							
							
							
							
							
							
							
							
							
							
							
							
							
							
							
							
							
							
							
							
							
							
							
							
							
							
							
							
							
							
							
							
							
							
							
							
							
							
							
							
							
							
							
							
							
							
							
							
							
							
							
							
							
							
							
							
							
							
							
							
							
							
							
							
							
							
							
							
							
							
							
							
							
							
							
							
							
							
							
							
							
							
							
							
							
							
							
							
							
							
							
							
							
							
							
							
							
							
							
							
							
							
							
							
							
							
							
							
							
							
							
							
							
							
							
							
							
							
							
							
							
							
							
							
							
							
							
							
							
							
							
							
							
							
							
							
							
							
							
							
							
							
							
							
							
							
							
							
							
							
							
							
							
							
							
							
							
							
							
							
							
							
							
							
							
							
							
							
							
							
							
							
							
							
							
							
							
							
							
							
							
							
							
							
							
							
							
							
							
							
							
							
							
							
							
							
							
							
							
							
							
							
							
							
							
							
							
							
							
							
							
							
							
							
							
							
							
							
							
							
							
							
							
							
							
							
							
							
							
							
							
							
							
							
							
							
							
							
							
							
							
							
							
							
							
							
							
							
							
							
							
							
							
							
							
							
							
							
							
							
							
							
							
							
							
							
							
							
							
							
							
							
							
							
							
							
							
							
							
							
							
							
							
							
							
							
							
							
							
							
							
							
							
							
							
							
							
							
							
							
							
							
							
							
							
							
							
							
							
							
							
							
							
							
							
							
							
							
							
							
							
							
							
							
							
							
							
							
							
							
							
							
							
							
							
							
							
							
							
							
							
							
							
							
							
							
							
							
							
							
							
							
							
							
							
							
							
							
							
							
							
							
							
							
							
