t(s)	Id(A)	Vd(mV)	Vg(mV)	t(s)	Temp(Celsius)	Hum(%RH)	
1.000000e-03	1.001634e-07	1.000000e+03	0.000000e+00	0.000000e+00	2.500000e+01	2.500000e+01	
2.020000e-01	1.001713e-07	1.000000e+03	0.000000e+00	3.000000e-01	2.500000e+01	2.500000e+01	
5.040000e-01	1.001982e-07	1.000000e+03	0.000000e+00	6.000000e-01	2.500000e+01	2.500000e+01	
8.060000e-01	1.001382e-07	1.000000e+03	0.000000e+00	9.000000e-01	2.500000e+01	2.500000e+01	
1.107000e+00	1.001480e-07	1.000000e+03	0.000000e+00	1.200000e+00	2.500000e+01	2.500000e+01	
1.409000e+00	1.001539e-07	1.000000e+03	0.000000e+00	1.500000e+00	2.500000e+01	2.500000e+01	
1.711000e+00	1.001474e-07	1.000000e+03	0.000000e+00	1.800000e+00	2.500000e+01	2.500000e+01	
2.012000e+00	1.001406e-07	1.000000e+03	0.000000e+00	2.100000e+00	2.500000e+01	2.500000e+01	
2.314000e+00	1.001376e-07	1.000000e+03	0.000000e+00	2.400000e+00	2.500000e+01	2.500000e+01	
2.616000e+00	1.001385e-07	1.000000e+03	0.000000e+00	2.700000e+00	2.500000e+01	2.500000e+01	
2.917000e+00	1.001502e-07	1.000000e+03	0.000000e+00	3.000000e+00	2.500000e+01	2.500000e+01	
3.219000e+00	1.001292e-07	1.000000e+03	0.000000e+00	3.300000e+00	2.500000e+01	2.500000e+01	
3.520000e+00	1.001686e-07	1.000000e+03	0.000000e+00	3.600000e+00	2.500000e+01	2.500000e+01	
3.822000e+00	1.001521e-07	1.000000e+03	0.000000e+00	3.900000e+00	2.500000e+01	2.500000e+01	
4.122000e+00	1.001400e-07	1.000000e+03	0.000000e+00	4.200000e+00	2.500000e+01	2.500000e+01	
4.424000e+00	1.001628e-07	1.000000e+03	0.000000e+00	4.500000e+00	2.500000e+01	2.500000e+01	
4.725000e+00	1.001397e-07	1.000000e+03	0.000000e+00	4.800000e+00	2.500000e+01	2.500000e+01	
5.027000e+00	1.001072e-07	1.000000e+03	0.000000e+00	5.100000e+00	2.500000e+01	2.500000e+01	
5.328000e+00	1.001460e-07	1.000000e+03	0.000000e+00	5.400000e+00	2.500000e+01	2.500000e+01	
5.630000e+00	1.001058e-07	1.000000e+03	0.000000e+00	5.700000e+00	2.500000e+01	2.500000e+01	
5.932000e+00	1.001487e-07	1.000000e+03	0.000000e+00	6.000000e+00	2.500000e+01	2.500000e+01	
6.233000e+00	1.001481e-07	1.000000e+03	0.000000e+00	6.300000e+00	2.500000e+01	2.500000e+01	
6.535000e+00	1.001563e-07	1.000000e+03	0.000000e+00	6.600000e+00	2.500000e+01	2.500000e+01	
6.836000e+00	1.001751e-07	1.000000e+03	0.000000e+00	6.900000e+00	2.500000e+01	2.500000e+01	
7.136000e+00	1.001385e-07	1.000000e+03	0.000000e+00	7.200000e+00	2.500000e+01	2.500000e+01	
7.438000e+00	1.001184e-07	1.000000e+03	0.000000e+00	7.500000e+00	2.500000e+01	2.500000e+01	
7.740000e+00	1.001644e-07	1.000000e+03	0.000000e+00	7.800000e+00	2.500000e+01	2.500000e+01	
8.041000e+00	1.001361e-07	1.000000e+03	0.000000e+00	8.100000e+00	2.500000e+01	2.500000e+01	
8.343000e+00	1.001497e-07	1.000000e+03	0.000000e+00	8.400001e+00	2.500000e+01	2.500000e+01	
8.644000e+00	1.001415e-07	1.000000e+03	0.000000e+00	8.700001e+00	2.500000e+01	2.500000e+01	
8.946000e+00	1.001913e-07	1.000000e+03	0.000000e+00	9.000000e+00	2.500000e+01	2.500000e+01	
9.247000e+00	1.001574e-07	1.000000e+03	0.000000e+00	9.300000e+00	2.500000e+01	2.500000e+01	
9.549000e+00	1.001481e-07	1.000000e+03	0.000000e+00	9.600000e+00	2.500000e+01	2.500000e+01	
9.851000e+00	1.001827e-07	1.000000e+03	0.000000e+00	9.900001e+00	2.500000e+01	2.500000e+01	
1.015300e+01	1.000959e-07	1.000000e+03	0.000000e+00	1.020000e+01	2.500000e+01	2.500000e+01	
1.045500e+01	1.001282e-07	1.000000e+03	0.000000e+00	1.050000e+01	2.500000e+01	2.500000e+01	
1.075600e+01	1.001535e-07	1.000000e+03	0.000000e+00	1.080000e+01	2.500000e+01	2.500000e+01	
1.105800e+01	1.001118e-07	1.000000e+03	0.000000e+00	1.110000e+01	2.500000e+01	2.500000e+01	
1.136000e+01	1.001766e-07	1.000000e+03	0.000000e+00	1.140000e+01	2.500000e+01	2.500000e+01	
1.166100e+01	1.000432e-07	1.000000e+03	0.000000e+00	1.170000e+01	2.500000e+01	2.500000e+01	
							
							
							
							
							
							
							
							
							
							
							
							
							
							
							
							
							
							
							
							
							
							
							
							
							
							
							
							
							
							
							
							
							
							
							
							
							
							
							
							
							
							
							
							
							
							
							
							
							
							
							
							
							
							
							
							
							
							
							
							
							
							
							
							
							
							
							
							
							
							
							
							
							
							
							
							
							
							
							
							
							
							
							
							
							
							
							
							
							
							
							
							
							
							
							
							
							
							
							
							
							
							
							
							
							
							
							
							
							
							
							
							
							
							
							
							
							
							
							
							
							
							
							
							
							
							
							
							
							
							
							
							
							
							
							
							
							
							
							
							
							
							
							
							
							
							
							
							
							
							
							
							
							
							
							
							
							
							
							
							
							
							
							
							
							
							
							
							
							
							
							
							
							
							
							
							
							
							
							
							
							
							
							
							
							
							
							
							
							
							
							
							
							
							
							
							
							
							
							
							
							
							
							
							
							
							
							
							
							
							
							
							
							
							
							
							
							
							
							
							
							
							
							
							
							
							
							
							
							
							
							
							
							
							
							
							
							
							
							
							
							
							
							
							
							
							
							
							
							
							
							
							
							
							
							
							
							
							
							
							
							
							
							
							
							
							
							
							
							
							
							
							
							
							
							
							
							
							
							
							
							
							
							
							
							
							
							
							
							
							
							
							
							
							
							
							
							
							
							
							
							
							
							
							
							
							
							
							
							
							
							
							
							
							
							
							
							
							
							
							
							
							
							
							
							
							
							
							
							
							
							
							
							
							
							
							
							
							
							
							
							
							
							
							
							
							
							
							
							
							
							
							
							
							
							
							
							
							
							
							
							
							
							
							
							
							
							
							
							
							
							
							
							
							
							
							
							
							
							
							
							
							
							
							
							
							
							
							
							
							
							
							
							
							
							
							
							
							
							
							
							
							
							
							
							
							
							
							
							
							
							
							
							
							
							
							
							
							
							
							
							
							
							
							
							
							
							
							
							
							
							
							
							
							
							
							
							
							
							
							
							
							
							
							
							
							
							
							
							
							
							
							
							
							
							
							
							
							
							
							
							
							
							
							
							
							
							
							
							
							
							
							
							
							
							
							
							
							
							
							
							
							
							
							
							
							
							
							
							
							
							
							
							
							
							
							
							
							
							
							
							
							
							
							
							
							
							
							
							
							
							
							
							
							
							
							
							
							
							
							
							
							
							
							
							
							
							
							
							
							
							
							
							
							
							
							
							
							
							
							
							
							
							
							
							
							
							
							
							
							
							
							
							
							
							
							
							
							
							
							
							
							
							
							
							
							
							
							
							
							
							
							
							
							
							
							
							
							
							
							
							
							
							
							
							
							
							
							
							
							
							
							
							
							
							
							
							
							
							
							
							
							
							
							
							
							
							
							
							
							
							
							
							
							
							
							
							
							
							
							
							
							
							
							
							
							
							
							
							
							
							
							
							
							
							
							
							
							
							
							
							
							
							
							
							
							
							
							
							
							
							
							
							
							
							
							
							
							
							
							
							
							
							
							
							
							
							
							
							
							
							
							
							
							
							
							
							
							
							
							
							
							
							
							
							
							
							
							
							
							
							
							
							
							
							
							
							
							
							
							
							
							
							
							
							
							
							
							
							
							
							
							
							
							
							
							
							
							
							
							
							
							
							
							
							
							
							
							
							
							
							
							
							
							
							
							
							
							
							
							
							
							
							
							
							
							
							
							
							
							
							
							
							
							
							
							
							
							
							
							
							
							
							
							
							
							
							
							
							
							
							
							
							
							
							
							
							
							
							
							
							
							
							
							
							
							
							
							
							
							
							
							
							
							
							
							
							
							
							
							
							
							
							
							
							
							
							
							
							
							
							
							
							
							
							
							
							
							
							
							
							
							
							
							
							
							
							
							
							
							
							
							
							
							
							
							
							
							
							
							
							
							
							
							
							
							
							
							
							
							
							
							
							
							
							
							
							
							
							
							
							
							
							
							
							
							
							
							
							
							
							
							
							
							
							
							
							
							
							
							
							
							
							
							
							
							
							
							
							
							
							
							
							
							
							
							
							
							
							
							
							
							
							
							
							
							
							
							
							
							
							
							
							
							
							
							
							
							
							
							
							
							
							
							
							
							
							
							
							
							
							
							
							
							
							
							
							
							
							
							
							
							
							
							
							
							
							
							
							
							
							
							
							
							
							
							
							
							
							
							
							
							
							
							
							
							
							
							
							
							
							
							
							
							
							
							
							
							
							
							
							
							
							
							
							
							
							
							
							
							
							
							
							
							
							
							
							
							
							
							
							
							
							
							
							
							
							
							
							
							
							
							
							
							
							
							
							
							
							
							
							
							
							
							
							
							
							
							
							
							
							
							
							
							
							
							
							
							
							
							
							
							
							
							
							
							
							
							
							
							
							
							
							
							
							
							
							
							
							
							
							
							
							
							
							
							
							
							
							
							
							
							
							
							
							
							
							
							
							
							
							
							
							
							
							
							
							
							
							
							
							
							
							
							
							
							
							
							
							
							
							
							
							
							
							
							
							
							
							
							
							
							
							
							
							
							
							
							
							
							
							
							
							
							
							
							
							
							
							
							
							
							
							
							
							
							
							
							
							
							
							
							
							
							
							
							
							
							
							
							
							
							
							
							
							
							
							
							
							
							
							
							
							
							
							
							
							
							
							
							
							
							
							
							
							
							
							
							
							
							
							
							
							
							
							
							
							
							
							
							
							
							
							
							
							
							
							
							
							
							
							
							
							
							
							
							
							
							
							
							
							
							
							
							
							
							
							
							
							
							
							
							
							
							
							
							
							
							
							
							
							
							
							
							
							
							
							
							
							
							
							
							
							
							
							
							
							
							
							
							
							
							
							
							
							
							
							
							
							
							
							
							
							
							
							
							
							
							
							
							
							
							
							
							
							
							
							
							
							
							
							
							
							
							
							
							
							
							
							
							
							
							
							
							
							
							
							
							
							
							
							
							
							
							
							
							
							
							
							
							
							
							
							
							
							
							
							
							
							
							
							
							
							
							
							
							
							
							
							
							
							
							
							
							
							
							
							
							
							
							
							
							
							
							
							
							
							
							
							
							
							
							
							
							
							
							
							
							
							
							
							
							
							
							
							
							
							
							
							
							
							
							
							
							
							
							
							
							
							
							
							
							
							
							
							
							
							
							
							
							
							
							
							
							
							
							
							
							
							
							
							
							
							
							
							
							
							
							
							
							
							
							
							
							
							
							
							
							
							
							
							
							
							
							
							
							
							
							
							
							
							
							
							
							
							
							
							
							
							
							
							
							
							
							
							
							
							
							
							
							
							
							
							
							
							
							
							
							
							
							
							
							
							
							
							
							
							
							
							
							
							
							
							
							
							
							
							
							
							
							
							
							
							
							
							
							
							
							
							
							
							
							
							
							
							
							
							
							
							
							
							
							
							
							
							
							
							
							
							
							
							
							
							
							
							
							
							
							
							
							
							
							
							
							
							
							
							
							
							
							
							
							
							
							
							
							
							
							
							
							
							
							
							
							
							
							
							
							
							
							
							
							
							
							
							
							
							
							
							
							
							
							
							
							
							
							
							
							
							
							
							
							
							
							
							
							
							
							
							
							
							
							
							
							
							
							
							
							
							
							
							
							
							
							
							
							
							
							
							
							
							
							
							
							
							
							
							
							
							
							
							
							
							
							
							
							
							
							
							
							
							
							
							
							
							
							
							
							
							
							
							
							
							
							
							
							
							
							
							
							
							
							
							
							
							
							
							
							
							
							
							
							
							
							
							
							
							
							
							
							
							
							
							
							
							
							
							
							
							
							
							
							
							
							
							
							
							
							
							
							
							
							
							
							
							
							
							
							
							
							
							
							
							
							
							
							
							
							
							
							
							
							
							
							
							
							
							
							
							
							
							
							
							
							
							
							
							
							
							
							
							
							
							
							
							
							
							
							
							
							
							
							
							
							
							
							
							
							
							
							
							
							
							
							
							
							
							
							
							
							
							
							
							
							
							
							
							
							
							
							
							
							
							
							
							
							
							
							
							
							
							
							
							
							
							
							
							
							
							
							
							
							
							
							
							
							
							
							
							
							
							
							
							
							
							
							
							
							
							
							
							
							
							
							
							
							
							
							
							
							
							
							
							
							
							
							
							
							
							
							
							
							
							
							
							
							
							
							
							
							
							
							
							
							
							
							
							
							
							
							
							
							
							
							
							
							
							
							
							
							
							
							
							
							
							
							
							
							
							
							
							
							
							
							
							
							
							
							
							
							
							
							
							
							
							
							
							
							
							
							
							
							
							
							
							
							
							
							
							
							
							
							
							
							
							
							
							
							
							
							
							
							
							
							
							
							
							
							
							
							
							
							
							
							
							
							
							
							
							
							
							
							
							
							
							
							
							
							
							
							
							
							
							
							
							
							
							
							
							
							
							
							
							
							
							
							
							
							
							
							
							
							
							
							
							
							
							
							
							
							
							
							
							
							
							
							
							
							
							
							
							
							
							
							
							
							
							
							
							
							
							
							
							
							
							
							
							
							
							
							
							
							
							
							
							
							
							
							
							
							
							
							
							
							
							
							
							
							
							
							
							
							
							
							
							
							
							
							
							
							
							
							
							
							
							
							
							
							
							
							
							
							
							
