Vd(mV)	Id(A)	Vg(mV)	Temp(Celsius)	Hum(%RH)	Press(Pa)	Vd(mV)	Id(A)	Vg(mV)	Temp(Celsius)	Hum(%RH)	Press(Pa)	Vd(mV)	Id(A)	Vg(mV)	Temp(Celsius)	Hum(%RH)	Press(Pa)	
1.000000e+04	7.984317e-07	0.000000e+00	2.500000e+01	2.500000e+01	1.192470e+05	1.000000e+04	7.985617e-07	1.000000e+03	2.500000e+01	2.500000e+01	1.192470e+05	1.000000e+04	7.986310e-07	2.000000e+03	2.500000e+01	2.500000e+01	1.192470e+05	
1.010000e+04	8.064330e-07	0.000000e+00	2.500000e+01	2.500000e+01	1.192470e+05	1.010000e+04	8.065666e-07	1.000000e+03	2.500000e+01	2.500000e+01	1.192470e+05	1.010000e+04	8.066454e-07	2.000000e+03	2.500000e+01	2.500000e+01	1.192470e+05	
1.020000e+04	8.145894e-07	0.000000e+00	2.500000e+01	2.500000e+01	1.192470e+05	1.020000e+04	8.144235e-07	1.000000e+03	2.500000e+01	2.500000e+01	1.192470e+05	1.020000e+04	8.145130e-07	2.000000e+03	2.500000e+01	2.500000e+01	1.192470e+05	
1.030000e+04	8.223842e-07	0.000000e+00	2.500000e+01	2.500000e+01	1.192470e+05	1.030000e+04	8.225286e-07	1.000000e+03	2.500000e+01	2.500000e+01	1.192470e+05	1.030000e+04	8.224702e-07	2.000000e+03	2.500000e+01	2.500000e+01	1.192470e+05	
1.040000e+04	8.304046e-07	0.000000e+00	2.500000e+01	2.500000e+01	1.192470e+05	1.040000e+04	8.303962e-07	1.000000e+03	2.500000e+01	2.500000e+01	1.192470e+05	1.040000e+04	8.305740e-07	2.000000e+03	2.500000e+01	2.500000e+01	1.192470e+05	
1.050000e+04	8.386064e-07	0.000000e+00	2.500000e+01	2.500000e+01	1.192470e+05	1.050000e+04	8.384620e-07	1.000000e+03	2.500000e+01	2.500000e+01	1.192470e+05	1.050000e+04	8.385228e-07	2.000000e+03	2.500000e+01	2.500000e+01	1.192470e+05	
1.060000e+04	8.463821e-07	0.000000e+00	2.500000e+01	2.500000e+01	1.192470e+05	1.060000e+04	8.464955e-07	1.000000e+03	2.500000e+01	2.500000e+01	1.192470e+05	1.060000e+04	8.463368e-07	2.000000e+03	2.500000e+01	2.500000e+01	1.192470e+05	
1.070000e+04	8.543798e-07	0.000000e+00	2.500000e+01	2.500000e+01	1.192470e+05	1.070000e+04	8.542318e-07	1.000000e+03	2.500000e+01	2.500000e+01	1.192470e+05	1.070000e+04	8.540253e-07	2.000000e+03	2.500000e+01	2.500000e+01	1.192470e+05	
1.080000e+04	8.624503e-07	0.000000e+00	2.500000e+01	2.500000e+01	1.192470e+05	1.080000e+04	8.625685e-07	1.000000e+03	2.500000e+01	2.500000e+01	1.192470e+05	1.080000e+04	8.625577e-07	2.000000e+03	2.500000e+01	2.500000e+01	1.192470e+05	
1.090000e+04	8.703274e-07	0.000000e+00	2.500000e+01	2.500000e+01	1.192470e+05	1.090000e+04	8.702713e-07	1.000000e+03	2.500000e+01	2.500000e+01	1.192470e+05	1.090000e+04	8.705268e-07	2.000000e+03	2.500000e+01	2.500000e+01	1.192470e+05	
1.100000e+04	8.785603e-07	0.000000e+00	2.500000e+01	2.500000e+01	1.192470e+05	1.100000e+04	8.784744e-07	1.000000e+03	2.500000e+01	2.500000e+01	1.192470e+05	1.100000e+04	8.785710e-07	2.000000e+03	2.500000e+01	2.500000e+01	1.192470e+05	
1.110000e+04	8.868194e-07	0.000000e+00	2.500000e+01	2.500000e+01	1.192470e+05	1.110000e+04	8.864757e-07	1.000000e+03	2.500000e+01	2.500000e+01	1.192470e+05	1.110000e+04	8.863766e-07	2.000000e+03	2.500000e+01	2.500000e+01	1.192470e+05	
1.120000e+04	8.944864e-07	0.000000e+00	2.500000e+01	2.500000e+01	1.192470e+05	1.120000e+04	8.944638e-07	1.000000e+03	2.500000e+01	2.500000e+01	1.192470e+05	1.120000e+04	8.944447e-07	2.000000e+03	2.500000e+01	2.500000e+01	1.192470e+05	
1.130000e+04	9.024472e-07	0.000000e+00	2.500000e+01	2.500000e+01	1.192470e+05	1.130000e+04	9.025224e-07	1.000000e+03	2.500000e+01	2.500000e+01	1.192470e+05	1.130000e+04	9.025785e-07	2.000000e+03	2.500000e+01	2.500000e+01	1.192470e+05	
1.140000e+04	9.103757e-07	0.000000e+00	2.500000e+01	2.500000e+01	1.192470e+05	1.140000e+04	9.104270e-07	1.000000e+03	2.500000e+01	2.500000e+01	1.192470e+05	1.140000e+04	9.102611e-07	2.000000e+03	2.500000e+01	2.500000e+01	1.192470e+05	
1.150000e+04	9.182409e-07	0.000000e+00	2.500000e+01	2.500000e+01	1.192470e+05	1.150000e+04	9.184999e-07	1.000000e+03	2.500000e+01	2.500000e+01	1.192470e+05	1.150000e+04	9.182517e-07	2.000000e+03	2.500000e+01	2.500000e+01	1.192470e+05	
1.160000e+04	9.259844e-07	0.000000e+00	2.500000e+01	2.500000e+01	1.192470e+05	1.160000e+04	9.263842e-07	1.000000e+03	2.500000e+01	2.500000e+01	1.192470e+05	1.160000e+04	9.262661e-07	2.000000e+03	2.500000e+01	2.500000e+01	1.192470e+05	
1.170000e+04	9.344034e-07	0.000000e+00	2.500000e+01	2.500000e+01	1.192470e+05	1.170000e+04	9.344751e-07	1.000000e+03	2.500000e+01	2.500000e+01	1.192470e+05	1.170000e+04	9.343437e-07	2.000000e+03	2.500000e+01	2.500000e+01	1.192470e+05	
1.180000e+04	9.423796e-07	0.000000e+00	2.500000e+01	2.500000e+01	1.192470e+05	1.180000e+04	9.424107e-07	1.000000e+03	2.500000e+01	2.500000e+01	1.192470e+05	1.180000e+04	9.422101e-07	2.000000e+03	2.500000e+01	2.500000e+01	1.192470e+05	
1.190000e+04	9.502472e-07	0.000000e+00	2.500000e+01	2.500000e+01	1.192470e+05	1.190000e+04	9.502818e-07	1.000000e+03	2.500000e+01	2.500000e+01	1.192470e+05	1.190000e+04	9.503141e-07	2.000000e+03	2.500000e+01	2.500000e+01	1.192470e+05	
1.200000e+04	9.583559e-07	0.000000e+00	2.500000e+01	2.500000e+01	1.192470e+05	1.200000e+04	9.582307e-07	1.000000e+03	2.500000e+01	2.500000e+01	1.192470e+05	1.200000e+04	9.583870e-07	2.000000e+03	2.500000e+01	2.500000e+01	1.192470e+05	
1.210000e+04	9.663906e-07	0.000000e+00	2.500000e+01	2.500000e+01	1.192470e+05	1.210000e+04	9.663477e-07	1.000000e+03	2.500000e+01	2.500000e+01	1.192470e+05	1.210000e+04	9.662378e-07	2.000000e+03	2.500000e+01	2.500000e+01	1.192470e+05	
1.220000e+04	9.742929e-07	0.000000e+00	2.500000e+01	2.500000e+01	1.192470e+05	1.220000e+04	9.743359e-07	1.000000e+03	2.500000e+01	2.500000e+01	1.192470e+05	1.220000e+04	9.745376e-07	2.000000e+03	2.500000e+01	2.500000e+01	1.192470e+05	
1.230000e+04	9.825150e-07	0.000000e+00	2.500000e+01	2.500000e+01	1.192470e+05	1.230000e+04	9.823287e-07	1.000000e+03	2.500000e+01	2.500000e+01	1.192470e+05	1.230000e+04	9.822667e-07	2.000000e+03	2.500000e+01	2.500000e+01	1.192470e+05	
1.240000e+04	9.903002e-07	0.000000e+00	2.500000e+01	2.500000e+01	1.192470e+05	1.240000e+04	9.903993e-07	1.000000e+03	2.500000e+01	2.500000e+01	1.192470e+05	1.240000e+04	9.902036e-07	2.000000e+03	2.500000e+01	2.500000e+01	1.192470e+05	
1.250000e+04	9.983349e-07	0.000000e+00	2.500000e+01	2.500000e+01	1.192470e+05	1.250000e+04	9.982514e-07	1.000000e+03	2.500000e+01	2.500000e+01	1.192470e+05	1.250000e+04	9.983481e-07	2.000000e+03	2.500000e+01	2.500000e+01	1.192470e+05	
1.260000e+04	1.006347e-06	0.000000e+00	2.500000e+01	2.500000e+01	1.192470e+05	1.260000e+04	1.006199e-06	1.000000e+03	2.500000e+01	2.500000e+01	1.192470e+05	1.260000e+04	1.006255e-06	2.000000e+03	2.500000e+01	2.500000e+01	1.192470e+05	
1.270000e+04	1.014262e-06	0.000000e+00	2.500000e+01	2.500000e+01	1.192470e+05	1.270000e+04	1.014182e-06	1.000000e+03	2.500000e+01	2.500000e+01	1.192470e+05	1.270000e+04	1.014191e-06	2.000000e+03	2.500000e+01	2.500000e+01	1.192470e+05	
1.280000e+04	1.022206e-06	0.000000e+00	2.500000e+01	2.500000e+01	1.192470e+05	1.280000e+04	1.021957e-06	1.000000e+03	2.500000e+01	2.500000e+01	1.192470e+05	1.280000e+04	1.022550e-06	2.000000e+03	2.500000e+01	2.500000e+01	1.192470e+05	
1.290000e+04	1.030266e-06	0.000000e+00	2.500000e+01	2.500000e+01	1.192470e+05	1.290000e+04	1.030445e-06	1.000000e+03	2.500000e+01	2.500000e+01	1.192470e+05	1.290000e+04	1.030347e-06	2.000000e+03	2.500000e+01	2.500000e+01	1.192470e+05	
1.300000e+04	1.038366e-06	0.000000e+00	2.500000e+01	2.500000e+01	1.192470e+05	1.300000e+04	1.038235e-06	1.000000e+03	2.500000e+01	2.500000e+01	1.192470e+05	1.300000e+04	1.038107e-06	2.000000e+03	2.500000e+01	2.500000e+01	1.192470e+05	
1.310000e+04	1.046183e-06	0.000000e+00	2.500000e+01	2.500000e+01	1.192470e+05	1.310000e+04	1.046209e-06	1.000000e+03	2.500000e+01	2.500000e+01	1.192470e+05	1.310000e+04	1.046316e-06	2.000000e+03	2.500000e+01	2.500000e+01	1.192470e+05	
1.320000e+04	1.054178e-06	0.000000e+00	2.500000e+01	2.500000e+01	1.192470e+05	1.320000e+04	1.054405e-06	1.000000e+03	2.500000e+01	2.500000e+01	1.192470e+05	1.320000e+04	1.053840e-06	2.000000e+03	2.500000e+01	2.500000e+01	1.192470e+05	
1.330000e+04	1.062406e-06	0.000000e+00	2.500000e+01	2.500000e+01	1.192470e+05	1.330000e+04	1.062407e-06	1.000000e+03	2.500000e+01	2.500000e+01	1.192470e+05	1.330000e+04	1.062165e-06	2.000000e+03	2.500000e+01	2.500000e+01	1.192470e+05	
1.340000e+04	1.070259e-06	0.000000e+00	2.500000e+01	2.500000e+01	1.192470e+05	1.340000e+04	1.070281e-06	1.000000e+03	2.500000e+01	2.500000e+01	1.192470e+05	1.340000e+04	1.070302e-06	2.000000e+03	2.500000e+01	2.500000e+01	1.192470e+05	
1.350000e+04	1.078178e-06	0.000000e+00	2.500000e+01	2.500000e+01	1.192470e+05	1.350000e+04	1.078252e-06	1.000000e+03	2.500000e+01	2.500000e+01	1.192470e+05	1.350000e+04	1.078073e-06	2.000000e+03	2.500000e+01	2.500000e+01	1.192470e+05	
1.360000e+04	1.086363e-06	0.000000e+00	2.500000e+01	2.500000e+01	1.192470e+05	1.360000e+04	1.086194e-06	1.000000e+03	2.500000e+01	2.500000e+01	1.192470e+05	1.360000e+04	1.086227e-06	2.000000e+03	2.500000e+01	2.500000e+01	1.192470e+05	
1.370000e+04	1.094219e-06	0.000000e+00	2.500000e+01	2.500000e+01	1.192470e+05	1.370000e+04	1.094211e-06	1.000000e+03	2.500000e+01	2.500000e+01	1.192470e+05	1.370000e+04	1.094250e-06	2.000000e+03	2.500000e+01	2.500000e+01	1.192470e+05	
1.380000e+04	1.102155e-06	0.000000e+00	2.500000e+01	2.500000e+01	1.192470e+05	1.380000e+04	1.102050e-06	1.000000e+03	2.500000e+01	2.500000e+01	1.192470e+05	1.380000e+04	1.102071e-06	2.000000e+03	2.500000e+01	2.500000e+01	1.192470e+05	
1.390000e+04	1.110127e-06	0.000000e+00	2.500000e+01	2.500000e+01	1.192470e+05	1.390000e+04	1.110323e-06	1.000000e+03	2.500000e+01	2.500000e+01	1.192470e+05	1.390000e+04	1.110163e-06	2.000000e+03	2.500000e+01	2.500000e+01	1.192470e+05	
1.400000e+04	1.118137e-06	0.000000e+00	2.500000e+01	2.500000e+01	1.192470e+05	1.400000e+04	1.118238e-06	1.000000e+03	2.500000e+01	2.500000e+01	1.192470e+05	1.400000e+04	1.117889e-06	2.000000e+03	2.500000e+01	2.500000e+01	1.192470e+05	
1.410000e+04	1.126110e-06	0.000000e+00	2.500000e+01	2.500000e+01	1.192470e+05	1.410000e+04	1.126007e-06	1.000000e+03	2.500000e+01	2.500000e+01	1.192470e+05	1.410000e+04	1.126184e-06	2.000000e+03	2.500000e+01	2.500000e+01	1.192470e+05	
1.420000e+04	1.134137e-06	0.000000e+00	2.500000e+01	2.500000e+01	1.192470e+05	1.420000e+04	1.134183e-06	1.000000e+03	2.500000e+01	2.500000e+01	1.192470e+05	1.420000e+04	1.134132e-06	2.000000e+03	2.500000e+01	2.500000e+01	1.192470e+05	
1.430000e+04	1.141936e-06	0.000000e+00	2.500000e+01	2.500000e+01	1.192470e+05	1.430000e+04	1.142088e-06	1.000000e+03	2.500000e+01	2.500000e+01	1.192470e+05	1.430000e+04	1.141983e-06	2.000000e+03	2.500000e+01	2.500000e+01	1.192470e+05	
1.440000e+04	1.150024e-06	0.000000e+00	2.500000e+01	2.500000e+01	1.192470e+05	1.440000e+04	1.150062e-06	1.000000e+03	2.500000e+01	2.500000e+01	1.192470e+05	1.440000e+04	1.150172e-06	2.000000e+03	2.500000e+01	2.500000e+01	1.192470e+05	
1.450000e+04	1.158361e-06	0.000000e+00	2.500000e+01	2.500000e+01	1.192470e+05	1.450000e+04	1.158128e-06	1.000000e+03	2.500000e+01	2.500000e+01	1.192470e+05	1.450000e+04	1.158084e-06	2.000000e+03	2.500000e+01	2.500000e+01	1.192470e+05	
1.460000e+04	1.166079e-06	0.000000e+00	2.500000e+01	2.500000e+01	1.192470e+05	1.460000e+04	1.166017e-06	1.000000e+03	2.500000e+01	2.500000e+01	1.192470e+05	1.460000e+04	1.166005e-06	2.000000e+03	2.500000e+01	2.500000e+01	1.192470e+05	
1.470000e+04	1.174120e-06	0.000000e+00	2.500000e+01	2.500000e+01	1.192470e+05	1.470000e+04	1.174114e-06	1.000000e+03	2.500000e+01	2.500000e+01	1.192470e+05	1.470000e+04	1.174183e-06	2.000000e+03	2.500000e+01	2.500000e+01	1.192470e+05	
1.480000e+04	1.182042e-06	0.000000e+00	2.500000e+01	2.500000e+01	1.192470e+05	1.480000e+04	1.182195e-06	1.000000e+03	2.500000e+01	2.500000e+01	1.192470e+05	1.480000e+04	1.181965e-06	2.000000e+03	2.500000e+01	2.500000e+01	1.192470e+05	
1.490000e+04	1.190126e-06	0.000000e+00	2.500000e+01	2.500000e+01	1.192470e+05	1.490000e+04	1.190029e-06	1.000000e+03	2.500000e+01	2.500000e+01	1.192470e+05	1.490000e+04	1.189959e-06	2.000000e+03	2.500000e+01	2.500000e+01	1.192470e+05	
1.500000e+04	1.197868e-06	0.000000e+00	2.500000e+01	2.500000e+01	1.192470e+05	1.500000e+04	1.197972e-06	1.000000e+03	2.500000e+01	2.500000e+01	1.192470e+05	1.500000e+04	1.198111e-06	2.000000e+03	2.500000e+01	2.500000e+01	1.192470e+05	
1.510000e+04	1.206244e-06	0.000000e+00	2.500000e+01	2.500000e+01	1.192470e+05	1.510000e+04	1.206020e-06	1.000000e+03	2.500000e+01	2.500000e+01	1.192470e+05	1.510000e+04	1.205782e-06	2.000000e+03	2.500000e+01	2.500000e+01	1.192470e+05	
1.520000e+04	1.214174e-06	0.000000e+00	2.500000e+01	2.500000e+01	1.192470e+05	1.520000e+04	1.214021e-06	1.000000e+03	2.500000e+01	2.500000e+01	1.192470e+05	1.520000e+04	1.214098e-06	2.000000e+03	2.500000e+01	2.500000e+01	1.192470e+05	
1.530000e+04	1.222013e-06	0.000000e+00	2.500000e+01	2.500000e+01	1.192470e+05	1.530000e+04	1.222096e-06	1.000000e+03	2.500000e+01	2.500000e+01	1.192470e+05	1.530000e+04	1.221944e-06	2.000000e+03	2.500000e+01	2.500000e+01	1.192470e+05	
1.540000e+04	1.230000e-06	0.000000e+00	2.500000e+01	2.500000e+01	1.192470e+05	1.540000e+04	1.229668e-06	1.000000e+03	2.500000e+01	2.500000e+01	1.192470e+05	1.540000e+04	1.229931e-06	2.000000e+03	2.500000e+01	2.500000e+01	1.192470e+05	
1.550000e+04	1.238010e-06	0.000000e+00	2.500000e+01	2.500000e+01	1.192470e+05	1.550000e+04	1.237926e-06	1.000000e+03	2.500000e+01	2.500000e+01	1.192470e+05	1.550000e+04	1.237817e-06	2.000000e+03	2.500000e+01	2.500000e+01	1.192470e+05	
1.560000e+04	1.246429e-06	0.000000e+00	2.500000e+01	2.500000e+01	1.192470e+05	1.560000e+04	1.246111e-06	1.000000e+03	2.500000e+01	2.500000e+01	1.192470e+05	1.560000e+04	1.245970e-06	2.000000e+03	2.500000e+01	2.500000e+01	1.192470e+05	
1.570000e+04	1.253983e-06	0.000000e+00	2.500000e+01	2.500000e+01	1.192470e+05	1.570000e+04	1.253866e-06	1.000000e+03	2.500000e+01	2.500000e+01	1.192470e+05	1.570000e+04	1.253980e-06	2.000000e+03	2.500000e+01	2.500000e+01	1.192470e+05	
1.580000e+04	1.261945e-06	0.000000e+00	2.500000e+01	2.500000e+01	1.192470e+05	1.580000e+04	1.262189e-06	1.000000e+03	2.500000e+01	2.500000e+01	1.192470e+05	1.580000e+04	1.261957e-06	2.000000e+03	2.500000e+01	2.500000e+01	1.192470e+05	
1.590000e+04	1.269802e-06	0.000000e+00	2.500000e+01	2.500000e+01	1.192470e+05	1.590000e+04	1.269844e-06	1.000000e+03	2.500000e+01	2.500000e+01	1.192470e+05	1.590000e+04	1.269806e-06	2.000000e+03	2.500000e+01	2.500000e+01	1.192470e+05	
1.600000e+04	1.277953e-06	0.000000e+00	2.500000e+01	2.500000e+01	1.192470e+05	1.600000e+04	1.277767e-06	1.000000e+03	2.500000e+01	2.500000e+01	1.192470e+05	1.600000e+04	1.277991e-06	2.000000e+03	2.500000e+01	2.500000e+01	1.192470e+05	
1.610000e+04	1.285881e-06	0.000000e+00	2.500000e+01	2.500000e+01	1.192470e+05	1.610000e+04	1.285712e-06	1.000000e+03	2.500000e+01	2.500000e+01	1.192470e+05	1.610000e+04	1.285935e-06	2.000000e+03	2.500000e+01	2.500000e+01	1.192470e+05	
1.620000e+04	1.293799e-06	0.000000e+00	2.500000e+01	2.500000e+01	1.192470e+05	1.620000e+04	1.294016e-06	1.000000e+03	2.500000e+01	2.500000e+01	1.192470e+05	1.620000e+04	1.293903e-06	2.000000e+03	2.500000e+01	2.500000e+01	1.192470e+05	
1.630000e+04	1.301779e-06	0.000000e+00	2.500000e+01	2.500000e+01	1.192470e+05	1.630000e+04	1.301872e-06	1.000000e+03	2.500000e+01	2.500000e+01	1.192470e+05	1.630000e+04	1.301900e-06	2.000000e+03	2.500000e+01	2.500000e+01	1.192470e+05	
1.640000e+04	1.309909e-06	0.000000e+00	2.500000e+01	2.500000e+01	1.192470e+05	1.640000e+04	1.309964e-06	1.000000e+03	2.500000e+01	2.500000e+01	1.192470e+05	1.640000e+04	1.309812e-06	2.000000e+03	2.500000e+01	2.500000e+01	1.192470e+05	
1.650000e+04	1.317962e-06	0.000000e+00	2.500000e+01	2.500000e+01	1.192470e+05	1.650000e+04	1.317793e-06	1.000000e+03	2.500000e+01	2.500000e+01	1.192470e+05	1.650000e+04	1.317886e-06	2.000000e+03	2.500000e+01	2.500000e+01	1.192470e+05	
1.660000e+04	1.325922e-06	0.000000e+00	2.500000e+01	2.500000e+01	1.192470e+05	1.660000e+04	1.325929e-06	1.000000e+03	2.500000e+01	2.500000e+01	1.192470e+05	1.660000e+04	1.326021e-06	2.000000e+03	2.500000e+01	2.500000e+01	1.192470e+05	
1.670000e+04	1.333988e-06	0.000000e+00	2.500000e+01	2.500000e+01	1.192470e+05	1.670000e+04	1.333921e-06	1.000000e+03	2.500000e+01	2.500000e+01	1.192470e+05	1.670000e+04	1.333921e-06	2.000000e+03	2.500000e+01	2.500000e+01	1.192470e+05	
1.680000e+04	1.341850e-06	0.000000e+00	2.500000e+01	2.500000e+01	1.192470e+05	1.680000e+04	1.341887e-06	1.000000e+03	2.500000e+01	2.500000e+01	1.192470e+05	1.680000e+04	1.341718e-06	2.000000e+03	2.500000e+01	2.500000e+01	1.192470e+05	
1.690000e+04	1.349727e-06	0.000000e+00	2.500000e+01	2.500000e+01	1.192470e+05	1.690000e+04	1.349738e-06	1.000000e+03	2.500000e+01	2.500000e+01	1.192470e+05	1.690000e+04	1.349696e-06	2.000000e+03	2.500000e+01	2.500000e+01	1.192470e+05	
1.700000e+04	1.357662e-06	0.000000e+00	2.500000e+01	2.500000e+01	1.192470e+05	1.700000e+04	1.357883e-06	1.000000e+03	2.500000e+01	2.500000e+01	1.192470e+05	1.700000e+04	1.357792e-06	2.000000e+03	2.500000e+01	2.500000e+01	1.192470e+05	
1.710000e+04	1.365758e-06	0.000000e+00	2.500000e+01	2.500000e+01	1.192470e+05	1.710000e+04	1.365814e-06	1.000000e+03	2.500000e+01	2.500000e+01	1.192470e+05	1.710000e+04	1.365491e-06	2.000000e+03	2.500000e+01	2.500000e+01	1.192470e+05	
1.720000e+04	1.373771e-06	0.000000e+00	2.500000e+01	2.500000e+01	1.192470e+05	1.720000e+04	1.373931e-06	1.000000e+03	2.500000e+01	2.500000e+01	1.192470e+05	1.720000e+04	1.373669e-06	2.000000e+03	2.500000e+01	2.500000e+01	1.192470e+05	
1.730000e+04	1.381788e-06	0.000000e+00	2.500000e+01	2.500000e+01	1.192470e+05	1.730000e+04	1.381530e-06	1.000000e+03	2.500000e+01	2.500000e+01	1.192470e+05	1.730000e+04	1.381601e-06	2.000000e+03	2.500000e+01	2.500000e+01	1.192470e+05	
1.740000e+04	1.389786e-06	0.000000e+00	2.500000e+01	2.500000e+01	1.192470e+05	1.740000e+04	1.389694e-06	1.000000e+03	2.500000e+01	2.500000e+01	1.192470e+05	1.740000e+04	1.389866e-06	2.000000e+03	2.500000e+01	2.500000e+01	1.192470e+05	
1.750000e+04	1.397559e-06	0.000000e+00	2.500000e+01	2.500000e+01	1.192470e+05	1.750000e+04	1.397554e-06	1.000000e+03	2.500000e+01	2.500000e+01	1.192470e+05	1.750000e+04	1.397806e-06	2.000000e+03	2.500000e+01	2.500000e+01	1.192470e+05	
1.760000e+04	1.405597e-06	0.000000e+00	2.500000e+01	2.500000e+01	1.192470e+05	1.760000e+04	1.405639e-06	1.000000e+03	2.500000e+01	2.500000e+01	1.192470e+05	1.760000e+04	1.405735e-06	2.000000e+03	2.500000e+01	2.500000e+01	1.192470e+05	
1.770000e+04	1.413792e-06	0.000000e+00	2.500000e+01	2.500000e+01	1.192470e+05	1.770000e+04	1.414007e-06	1.000000e+03	2.500000e+01	2.500000e+01	1.192470e+05	1.770000e+04	1.413497e-06	2.000000e+03	2.500000e+01	2.500000e+01	1.192470e+05	
1.780000e+04	1.421637e-06	0.000000e+00	2.500000e+01	2.500000e+01	1.192470e+05	1.780000e+04	1.421790e-06	1.000000e+03	2.500000e+01	2.500000e+01	1.192470e+05	1.780000e+04	1.422179e-06	2.000000e+03	2.500000e+01	2.500000e+01	1.192470e+05	
1.790000e+04	1.429816e-06	0.000000e+00	2.500000e+01	2.500000e+01	1.192470e+05	1.790000e+04	1.429789e-06	1.000000e+03	2.500000e+01	2.500000e+01	1.192470e+05	1.790000e+04	1.429789e-06	2.000000e+03	2.500000e+01	2.500000e+01	1.192470e+05	
1.800000e+04	1.437830e-06	0.000000e+00	2.500000e+01	2.500000e+01	1.192470e+05	1.800000e+04	1.437821e-06	1.000000e+03	2.500000e+01	2.500000e+01	1.192470e+05	1.800000e+04	1.437619e-06	2.000000e+03	2.500000e+01	2.500000e+01	1.192470e+05	
1.810000e+04	1.445821e-06	0.000000e+00	2.500000e+01	2.500000e+01	1.192470e+05	1.810000e+04	1.445657e-06	1.000000e+03	2.500000e+01	2.500000e+01	1.192470e+05	1.810000e+04	1.445710e-06	2.000000e+03	2.500000e+01	2.500000e+01	1.192470e+05	
1.820000e+04	1.453588e-06	0.000000e+00	2.500000e+01	2.500000e+01	1.192470e+05	1.820000e+04	1.453944e-06	1.000000e+03	2.500000e+01	2.500000e+01	1.192470e+05	1.820000e+04	1.453507e-06	2.000000e+03	2.500000e+01	2.500000e+01	1.192470e+05	
1.830000e+04	1.461616e-06	0.000000e+00	2.500000e+01	2.500000e+01	1.192470e+05	1.830000e+04	1.461690e-06	1.000000e+03	2.500000e+01	2.500000e+01	1.192470e+05	1.830000e+04	1.461674e-06	2.000000e+03	2.500000e+01	2.500000e+01	1.192470e+05	
