Vd(mV)	Id(A)	Vg(mV)	Temp(Celsius)	Hum(%RH)	Press(Pa)	Vd(mV)	Id(A)	Vg(mV)	Temp(Celsius)	Hum(%RH)	Press(Pa)	Vd(mV)	Id(A)	Vg(mV)	Temp(Celsius)	Hum(%RH)	Press(Pa)	
-2.380000e+04	-1.901130e-06	0.000000e+00				-2.380000e+04	-1.901145e-06	1.000000e+03										
-2.370000e+04	-1.893101e-06	0.000000e+00				-2.370000e+04	-1.893002e-06	1.000000e+03										
-2.360000e+04	-1.885398e-06	0.000000e+00				-2.360000e+04	-1.885108e-06	1.000000e+03										
-2.350000e+04	-1.877259e-06	0.000000e+00				-2.350000e+04	-1.877305e-06	1.000000e+03										
-2.340000e+04	-1.869151e-06	0.000000e+00				-2.340000e+04	-1.869308e-06	1.000000e+03										
-2.330000e+04	-1.861200e-06	0.000000e+00				-2.330000e+04	-1.861195e-06	1.000000e+03										
-2.320000e+04	-1.853328e-06	0.000000e+00				-2.320000e+04	-1.853381e-06	1.000000e+03										
-2.310000e+04	-1.845403e-06	0.000000e+00				-2.310000e+04	-1.845250e-06	1.000000e+03										
-2.300000e+04	-1.837360e-06	0.000000e+00				-2.300000e+04	-1.837276e-06	1.000000e+03										
-2.290000e+04	-1.829298e-06	0.000000e+00				-2.290000e+04	-1.829553e-06	1.000000e+03										
-2.280000e+04	-1.821254e-06	0.000000e+00				-2.280000e+04	-1.821288e-06	1.000000e+03										
-2.270000e+04	-1.813302e-06	0.000000e+00				-2.270000e+04	-1.812871e-06	1.000000e+03										
-2.260000e+04	-1.805401e-06	0.000000e+00				-2.260000e+04	-1.805435e-06	1.000000e+03										
-2.250000e+04	-1.797220e-06	0.000000e+00				-2.250000e+04	-1.797269e-06	1.000000e+03										
-2.240000e+04	-1.789226e-06	0.000000e+00				-2.240000e+04	-1.789444e-06	1.000000e+03										
-2.230000e+04	-1.781610e-06	0.000000e+00				-2.230000e+04	-1.781294e-06	1.000000e+03										
-2.220000e+04	-1.773518e-06	0.000000e+00				-2.220000e+04	-1.773563e-06	1.000000e+03										
-2.210000e+04	-1.765367e-06	0.000000e+00				-2.210000e+04	-1.765329e-06	1.000000e+03										
-2.200000e+04	-1.757515e-06	0.000000e+00				-2.200000e+04	-1.757473e-06	1.000000e+03										
-2.190000e+04	-1.749487e-06	0.000000e+00				-2.190000e+04	-1.749373e-06	1.000000e+03										
-2.180000e+04	-1.741314e-06	0.000000e+00				-2.180000e+04	-1.741627e-06	1.000000e+03										
-2.170000e+04	-1.733526e-06	0.000000e+00				-2.170000e+04	-1.733450e-06	1.000000e+03										
-2.160000e+04	-1.725865e-06	0.000000e+00				-2.160000e+04	-1.725540e-06	1.000000e+03										
-2.150000e+04	-1.717589e-06	0.000000e+00				-2.150000e+04	-1.717516e-06	1.000000e+03										
-2.140000e+04	-1.709698e-06	0.000000e+00				-2.140000e+04	-1.709465e-06	1.000000e+03										
-2.130000e+04	-1.701472e-06	0.000000e+00				-2.130000e+04	-1.701452e-06	1.000000e+03										
-2.120000e+04	-1.693463e-06	0.000000e+00				-2.120000e+04	-1.693252e-06	1.000000e+03										
-2.110000e+04	-1.685625e-06	0.000000e+00				-2.110000e+04	-1.685366e-06	1.000000e+03										
-2.100000e+04	-1.676688e-06	0.000000e+00				-2.100000e+04	-1.677414e-06	1.000000e+03										
-2.090000e+04	-1.669627e-06	0.000000e+00				-2.090000e+04	-1.670028e-06	1.000000e+03										
-2.080000e+04	-1.661423e-06	0.000000e+00				-2.080000e+04	-1.661618e-06	1.000000e+03										
-2.070000e+04	-1.653830e-06	0.000000e+00				-2.070000e+04	-1.653487e-06	1.000000e+03										
-2.060000e+04	-1.645318e-06	0.000000e+00				-2.060000e+04	-1.646146e-06	1.000000e+03										
-2.050000e+04	-1.637717e-06	0.000000e+00				-2.050000e+04	-1.637606e-06	1.000000e+03										
-2.040000e+04	-1.629655e-06	0.000000e+00				-2.040000e+04	-1.629479e-06	1.000000e+03										
-2.030000e+04	-1.621691e-06	0.000000e+00				-2.030000e+04	-1.621833e-06	1.000000e+03										
-2.020000e+04	-1.613572e-06	0.000000e+00				-2.020000e+04	-1.613774e-06	1.000000e+03										
-2.010000e+04	-1.605429e-06	0.000000e+00				-2.010000e+04	-1.605930e-06	1.000000e+03										
-2.000000e+04	-1.597738e-06	0.000000e+00				-2.000000e+04	-1.597795e-06	1.000000e+03										
-1.990000e+04	-1.589549e-06	0.000000e+00				-1.990000e+04	-1.589847e-06	1.000000e+03										
-1.980000e+04	-1.581865e-06	0.000000e+00				-1.980000e+04	-1.581853e-06	1.000000e+03										
-1.970000e+04	-1.573737e-06	0.000000e+00				-1.970000e+04	-1.573187e-06	1.000000e+03										
-1.960000e+04	-1.565591e-06	0.000000e+00				-1.960000e+04	-1.565790e-06	1.000000e+03										
-1.950000e+04	-1.557876e-06	0.000000e+00				-1.950000e+04	-1.557811e-06	1.000000e+03										
-1.940000e+04	-1.549676e-06	0.000000e+00				-1.940000e+04	-1.549680e-06	1.000000e+03										
-1.930000e+04	-1.541885e-06	0.000000e+00				-1.930000e+04	-1.541755e-06	1.000000e+03										
-1.920000e+04	-1.533849e-06	0.000000e+00				-1.920000e+04	-1.533815e-06	1.000000e+03										
-1.910000e+04	-1.525791e-06	0.000000e+00				-1.910000e+04	-1.525844e-06	1.000000e+03										
-1.900000e+04	-1.517748e-06	0.000000e+00				-1.900000e+04	-1.517740e-06	1.000000e+03										
-1.890000e+04	-1.509700e-06	0.000000e+00				-1.890000e+04	-1.509086e-06	1.000000e+03										
-1.880000e+04	-1.501821e-06	0.000000e+00				-1.880000e+04	-1.501795e-06	1.000000e+03										
-1.870000e+04	-1.493805e-06	0.000000e+00				-1.870000e+04	-1.493801e-06	1.000000e+03										
-1.860000e+04	-1.485815e-06	0.000000e+00				-1.860000e+04	-1.485800e-06	1.000000e+03										
-1.850000e+04	-1.477592e-06	0.000000e+00				-1.850000e+04	-1.477829e-06	1.000000e+03										
-1.840000e+04	-1.469755e-06	0.000000e+00				-1.840000e+04	-1.469813e-06	1.000000e+03										
-1.830000e+04	-1.461903e-06	0.000000e+00				-1.830000e+04	-1.461949e-06	1.000000e+03										
-1.820000e+04	-1.453936e-06	0.000000e+00				-1.820000e+04	-1.453947e-06	1.000000e+03										
-1.810000e+04	-1.446003e-06	0.000000e+00				-1.810000e+04	-1.445962e-06	1.000000e+03										
-1.800000e+04	-1.438021e-06	0.000000e+00				-1.800000e+04	-1.437803e-06	1.000000e+03										
-1.790000e+04	-1.429584e-06	0.000000e+00				-1.790000e+04	-1.429875e-06	1.000000e+03										
-1.780000e+04	-1.421912e-06	0.000000e+00				-1.780000e+04	-1.421988e-06	1.000000e+03										
-1.770000e+04	-1.413906e-06	0.000000e+00				-1.770000e+04	-1.415109e-06	1.000000e+03										
-1.760000e+04	-1.406104e-06	0.000000e+00				-1.760000e+04	-1.405970e-06	1.000000e+03										
-1.750000e+04	-1.397996e-06	0.000000e+00				-1.750000e+04	-1.397942e-06	1.000000e+03										
-1.740000e+04	-1.390010e-06	0.000000e+00				-1.740000e+04	-1.390036e-06	1.000000e+03										
-1.730000e+04	-1.382226e-06	0.000000e+00				-1.730000e+04	-1.381844e-06	1.000000e+03										
-1.720000e+04	-1.374164e-06	0.000000e+00				-1.720000e+04	-1.374167e-06	1.000000e+03										
-1.710000e+04	-1.366189e-06	0.000000e+00				-1.710000e+04	-1.366059e-06	1.000000e+03										
-1.700000e+04	-1.357928e-06	0.000000e+00				-1.700000e+04	-1.358203e-06	1.000000e+03										
-1.690000e+04	-1.350042e-06	0.000000e+00				-1.690000e+04	-1.350007e-06	1.000000e+03										
-1.680000e+04	-1.342021e-06	0.000000e+00				-1.680000e+04	-1.341994e-06	1.000000e+03										
-1.670000e+04	-1.334405e-06	0.000000e+00				-1.670000e+04	-1.334031e-06	1.000000e+03										
-1.660000e+04	-1.326229e-06	0.000000e+00				-1.660000e+04	-1.326118e-06	1.000000e+03										
-1.650000e+04	-1.318326e-06	0.000000e+00				-1.650000e+04	-1.318090e-06	1.000000e+03										
-1.640000e+04	-1.310142e-06	0.000000e+00				-1.640000e+04	-1.309947e-06	1.000000e+03										
-1.630000e+04	-1.302041e-06	0.000000e+00				-1.630000e+04	-1.302095e-06	1.000000e+03										
-1.620000e+04	-1.294052e-06	0.000000e+00				-1.620000e+04	-1.294147e-06	1.000000e+03										
-1.610000e+04	-1.286325e-06	0.000000e+00				-1.610000e+04	-1.286161e-06	1.000000e+03										
-1.600000e+04	-1.278083e-06	0.000000e+00				-1.600000e+04	-1.278339e-06	1.000000e+03										
-1.590000e+04	-1.270277e-06	0.000000e+00				-1.590000e+04	-1.270979e-06	1.000000e+03										
-1.580000e+04	-1.262295e-06	0.000000e+00				-1.580000e+04	-1.262390e-06	1.000000e+03										
-1.570000e+04	-1.254373e-06	0.000000e+00				-1.570000e+04	-1.254171e-06	1.000000e+03										
-1.560000e+04	-1.246269e-06	0.000000e+00				-1.560000e+04	-1.246013e-06	1.000000e+03										
-1.550000e+04	-1.238539e-06	0.000000e+00				-1.550000e+04	-1.238226e-06	1.000000e+03										
-1.540000e+04	-1.229995e-06	0.000000e+00				-1.540000e+04	-1.230316e-06	1.000000e+03										
-1.530000e+04	-1.222273e-06	0.000000e+00				-1.530000e+04	-1.222231e-06	1.000000e+03										
-1.520000e+04	-1.214310e-06	0.000000e+00				-1.520000e+04	-1.214206e-06	1.000000e+03										
-1.510000e+04	-1.206453e-06	0.000000e+00				-1.510000e+04	-1.206507e-06	1.000000e+03										
-1.500000e+04	-1.198304e-06	0.000000e+00				-1.500000e+04	-1.198548e-06	1.000000e+03										
-1.490000e+04	-1.190462e-06	0.000000e+00				-1.490000e+04	-1.190199e-06	1.000000e+03										
-1.480000e+04	-1.182255e-06	0.000000e+00				-1.480000e+04	-1.182450e-06	1.000000e+03										
-1.470000e+04	-1.174150e-06	0.000000e+00				-1.470000e+04	-1.174387e-06	1.000000e+03										
-1.460000e+04	-1.166898e-06	0.000000e+00				-1.460000e+04	-1.166012e-06	1.000000e+03										
-1.450000e+04	-1.158236e-06	0.000000e+00				-1.450000e+04	-1.158285e-06	1.000000e+03										
-1.440000e+04	-1.150659e-06	0.000000e+00				-1.440000e+04	-1.150254e-06	1.000000e+03										
-1.430000e+04	-1.142394e-06	0.000000e+00				-1.430000e+04	-1.142241e-06	1.000000e+03										
-1.420000e+04	-1.134377e-06	0.000000e+00				-1.420000e+04	-1.134534e-06	1.000000e+03										
-1.410000e+04	-1.126292e-06	0.000000e+00				-1.410000e+04	-1.126349e-06	1.000000e+03										
-1.400000e+04	-1.118363e-06	0.000000e+00				-1.400000e+04	-1.118845e-06	1.000000e+03										
-1.390000e+04	-1.110309e-06	0.000000e+00				-1.390000e+04	-1.110553e-06	1.000000e+03										
-1.380000e+04	-1.102708e-06	0.000000e+00				-1.380000e+04	-1.102422e-06	1.000000e+03										
-1.370000e+04	-1.094566e-06	0.000000e+00				-1.370000e+04	-1.094997e-06	1.000000e+03										
-1.360000e+04	-1.087083e-06	0.000000e+00				-1.360000e+04	-1.086755e-06	1.000000e+03										
-1.350000e+04	-1.079816e-06	0.000000e+00				-1.350000e+04	-1.078353e-06	1.000000e+03										
-1.340000e+04	-1.070562e-06	0.000000e+00				-1.340000e+04	-1.070313e-06	1.000000e+03										
-1.330000e+04	-1.062629e-06	0.000000e+00				-1.330000e+04	-1.062384e-06	1.000000e+03										
-1.320000e+04	-1.054536e-06	0.000000e+00				-1.320000e+04	-1.054567e-06	1.000000e+03										
-1.310000e+04	-1.046573e-06	0.000000e+00				-1.310000e+04	-1.046389e-06	1.000000e+03										
-1.300000e+04	-1.038541e-06	0.000000e+00				-1.300000e+04	-1.038686e-06	1.000000e+03										
-1.290000e+04	-1.030647e-06	0.000000e+00				-1.290000e+04	-1.030559e-06	1.000000e+03										
-1.280000e+04	-1.022649e-06	0.000000e+00				-1.280000e+04	-1.022588e-06	1.000000e+03										
-1.270000e+04	-1.014686e-06	0.000000e+00				-1.270000e+04	-1.014915e-06	1.000000e+03										
-1.260000e+04	-1.006735e-06	0.000000e+00				-1.260000e+04	-1.006445e-06	1.000000e+03										
-1.250000e+04	-9.985728e-07	0.000000e+00				-1.250000e+04	-9.985650e-07	1.000000e+03										
-1.240000e+04	-9.906443e-07	0.000000e+00				-1.240000e+04	-9.905983e-07	1.000000e+03										
-1.230000e+04	-9.825285e-07	0.000000e+00				-1.230000e+04	-9.825624e-07	1.000000e+03										
-1.220000e+04	-9.746531e-07	0.000000e+00				-1.220000e+04	-9.745039e-07	1.000000e+03										
-1.210000e+04	-9.665217e-07	0.000000e+00				-1.210000e+04	-9.668272e-07	1.000000e+03										
-1.200000e+04	-9.587424e-07	0.000000e+00				-1.200000e+04	-9.579899e-07	1.000000e+03										
-1.190000e+04	-9.505119e-07	0.000000e+00				-1.190000e+04	-9.503514e-07	1.000000e+03										
-1.180000e+04	-9.425488e-07	0.000000e+00				-1.180000e+04	-9.425142e-07	1.000000e+03										
-1.170000e+04	-9.345702e-07	0.000000e+00				-1.170000e+04	-9.344860e-07	1.000000e+03										
-1.160000e+04	-9.266608e-07	0.000000e+00				-1.160000e+04	-9.267521e-07	1.000000e+03										
-1.150000e+04	-9.187318e-07	0.000000e+00				-1.150000e+04	-9.186709e-07	1.000000e+03										
-1.140000e+04	-9.106237e-07	0.000000e+00				-1.140000e+04	-9.106504e-07	1.000000e+03										
-1.130000e+04	-9.028671e-07	0.000000e+00				-1.130000e+04	-9.026641e-07	1.000000e+03										
-1.120000e+04	-8.947052e-07	0.000000e+00				-1.120000e+04	-8.946628e-07	1.000000e+03										
-1.110000e+04	-8.869027e-07	0.000000e+00				-1.110000e+04	-8.867499e-07	1.000000e+03										
-1.100000e+04	-8.788095e-07	0.000000e+00				-1.100000e+04	-8.790846e-07	1.000000e+03										
-1.090000e+04	-8.708004e-07	0.000000e+00				-1.090000e+04	-8.709609e-07	1.000000e+03										
-1.080000e+04	-8.627036e-07	0.000000e+00				-1.080000e+04	-8.628147e-07	1.000000e+03										
-1.070000e+04	-8.548898e-07	0.000000e+00				-1.070000e+04	-8.539541e-07	1.000000e+03										
-1.060000e+04	-8.465483e-07	0.000000e+00				-1.060000e+04	-8.466360e-07	1.000000e+03										
-1.050000e+04	-8.390095e-07	0.000000e+00				-1.050000e+04	-8.386694e-07	1.000000e+03										
-1.040000e+04	-8.310423e-07	0.000000e+00				-1.040000e+04	-8.307940e-07	1.000000e+03										
-1.030000e+04	-8.220521e-07	0.000000e+00				-1.030000e+04	-8.231137e-07	1.000000e+03										
-1.020000e+04	-8.153721e-07	0.000000e+00				-1.020000e+04	-8.149293e-07	1.000000e+03										
-1.010000e+04	-8.073058e-07	0.000000e+00				-1.010000e+04	-8.069316e-07	1.000000e+03										
-1.000000e+04	-7.984910e-07	0.000000e+00				-1.000000e+04	-7.989189e-07	1.000000e+03										
-9.900000e+03	-7.906694e-07	0.000000e+00				-9.900000e+03	-7.910513e-07	1.000000e+03										
-9.800000e+03	-7.821716e-07	0.000000e+00				-9.800000e+03	-7.829163e-07	1.000000e+03										
-9.700000e+03	-7.752511e-07	0.000000e+00				-9.700000e+03	-7.750446e-07	1.000000e+03										
-9.600000e+03	-7.667687e-07	0.000000e+00				-9.600000e+03	-7.671005e-07	1.000000e+03										
-9.500000e+03	-7.592180e-07	0.000000e+00				-9.500000e+03	-7.587519e-07	1.000000e+03										
-9.400000e+03	-7.507584e-07	0.000000e+00				-9.400000e+03	-7.510102e-07	1.000000e+03										
-9.300000e+03	-7.427953e-07	0.000000e+00				-9.300000e+03	-7.431044e-07	1.000000e+03										
-9.200000e+03	-7.350041e-07	0.000000e+00				-9.200000e+03	-7.349390e-07	1.000000e+03										
-9.100000e+03	-7.272164e-07	0.000000e+00				-9.100000e+03	-7.270983e-07	1.000000e+03										
-9.000000e+03	-7.189520e-07	0.000000e+00				-9.000000e+03	-7.189973e-07	1.000000e+03										
-8.900000e+03	-7.111183e-07	0.000000e+00				-8.900000e+03	-7.110307e-07	1.000000e+03										
-8.800000e+03	-7.031248e-07	0.000000e+00				-8.800000e+03	-7.027924e-07	1.000000e+03										
-8.700000e+03	-6.950698e-07	0.000000e+00				-8.700000e+03	-6.950698e-07	1.000000e+03										
-8.600000e+03	-6.870495e-07	0.000000e+00				-8.600000e+03	-6.869695e-07	1.000000e+03										
-8.500000e+03	-6.788996e-07	0.000000e+00				-8.500000e+03	-6.788650e-07	1.000000e+03										
-8.400000e+03	-6.709705e-07	0.000000e+00				-8.400000e+03	-8.431265e-07	1.000000e+03										
-8.300000e+03	-6.629274e-07	0.000000e+00				-8.300000e+03	-8.331325e-07	1.000000e+03										
-8.200000e+03	-6.551744e-07	0.000000e+00				-8.200000e+03	-8.232288e-07	1.000000e+03										
-8.100000e+03	-6.471540e-07	0.000000e+00				-8.100000e+03	-8.131174e-07	1.000000e+03										
-8.000000e+03	-8.029876e-07	0.000000e+00				-8.000000e+03	-8.030769e-07	1.000000e+03										
-7.900000e+03	-7.929592e-07	0.000000e+00				-7.900000e+03	-7.929788e-07	1.000000e+03										
-7.800000e+03	-7.829105e-07	0.000000e+00				-7.800000e+03	-7.829044e-07	1.000000e+03										
-7.700000e+03	-7.727909e-07	0.000000e+00				-7.700000e+03	-7.730952e-07	1.000000e+03										
-7.600000e+03	-7.628531e-07	0.000000e+00				-7.600000e+03	-7.628459e-07	1.000000e+03										
-7.500000e+03	-7.527776e-07	0.000000e+00				-7.500000e+03	-7.527695e-07	1.000000e+03										
-7.400000e+03	-7.427300e-07	0.000000e+00				-7.400000e+03	-7.427948e-07	1.000000e+03										
-7.300000e+03	-7.327034e-07	0.000000e+00				-7.300000e+03	-7.327135e-07	1.000000e+03										
-7.200000e+03	-7.227067e-07	0.000000e+00				-7.200000e+03	-7.227028e-07	1.000000e+03										
-7.100000e+03	-7.127012e-07	0.000000e+00				-7.100000e+03	-7.126470e-07	1.000000e+03										
-7.000000e+03	-7.026348e-07	0.000000e+00				-7.000000e+03	-7.026070e-07	1.000000e+03										
-6.900000e+03	-6.926001e-07	0.000000e+00				-6.900000e+03	-6.925214e-07	1.000000e+03										
-6.800000e+03	-6.825952e-07	0.000000e+00				-6.800000e+03	-6.825476e-07	1.000000e+03										
-6.700000e+03	-6.725687e-07	0.000000e+00				-6.700000e+03	-6.726052e-07	1.000000e+03										
-6.600000e+03	-6.625829e-07	0.000000e+00				-6.600000e+03	-6.626059e-07	1.000000e+03										
-6.500000e+03	-6.524853e-07	0.000000e+00				-6.500000e+03	-6.524805e-07	1.000000e+03										
-6.400000e+03	-6.424050e-07	0.000000e+00				-6.400000e+03	-6.424827e-07	1.000000e+03										
-6.300000e+03	-6.323492e-07	0.000000e+00				-6.300000e+03	-6.323501e-07	1.000000e+03										
-6.200000e+03	-6.223471e-07	0.000000e+00				-6.200000e+03	-6.223586e-07	1.000000e+03										
-6.100000e+03	-6.122860e-07	0.000000e+00				-6.100000e+03	-6.123340e-07	1.000000e+03										
-6.000000e+03	-6.022868e-07	0.000000e+00				-6.000000e+03	-6.022950e-07	1.000000e+03										
-5.900000e+03	-5.921230e-07	0.000000e+00				-5.900000e+03	-5.922300e-07	1.000000e+03										
-5.800000e+03	-5.822299e-07	0.000000e+00				-5.800000e+03	-5.824022e-07	1.000000e+03										
-5.700000e+03	-5.721659e-07	0.000000e+00				-5.700000e+03	-5.721943e-07	1.000000e+03										
-5.600000e+03	-5.621528e-07	0.000000e+00				-5.600000e+03	-5.622445e-07	1.000000e+03										
-5.500000e+03	-5.521633e-07	0.000000e+00				-5.500000e+03	-5.521766e-07	1.000000e+03										
-5.400000e+03	-5.420728e-07	0.000000e+00				-5.400000e+03	-5.421376e-07	1.000000e+03										
-5.300000e+03	-5.320751e-07	0.000000e+00				-5.300000e+03	-5.322570e-07	1.000000e+03										
-5.200000e+03	-5.220870e-07	0.000000e+00				-5.200000e+03	-5.220428e-07	1.000000e+03										
-5.100000e+03	-5.119668e-07	0.000000e+00				-5.100000e+03	-5.120522e-07	1.000000e+03										
-5.000000e+03	-5.019974e-07	0.000000e+00				-5.000000e+03	-5.020257e-07	1.000000e+03										
-4.900000e+03	-4.919046e-07	0.000000e+00				-4.900000e+03	-4.918883e-07	1.000000e+03										
-4.800000e+03	-4.819078e-07	0.000000e+00				-4.800000e+03	-4.818099e-07	1.000000e+03										
-4.700000e+03	-4.717637e-07	0.000000e+00				-4.700000e+03	-4.719930e-07	1.000000e+03										
-4.600000e+03	-4.618298e-07	0.000000e+00				-4.600000e+03	-4.618235e-07	1.000000e+03										
-4.500000e+03	-4.517418e-07	0.000000e+00				-4.500000e+03	-4.517821e-07	1.000000e+03										
-4.400000e+03	-4.417388e-07	0.000000e+00				-4.400000e+03	-4.417340e-07	1.000000e+03										
-4.300000e+03	-4.316925e-07	0.000000e+00				-4.300000e+03	-4.316916e-07	1.000000e+03										
-4.200000e+03	-4.217327e-07	0.000000e+00				-4.200000e+03	-4.216732e-07	1.000000e+03										
-4.100000e+03	-4.116380e-07	0.000000e+00				-4.100000e+03	-4.116831e-07	1.000000e+03										
-4.000000e+03	-4.016355e-07	0.000000e+00				-4.000000e+03	-4.015678e-07	1.000000e+03										
-3.900000e+03	-3.916368e-07	0.000000e+00				-3.900000e+03	-3.915518e-07	1.000000e+03										
-3.800000e+03	-3.815862e-07	0.000000e+00				-3.800000e+03	-3.815497e-07	1.000000e+03										
-3.700000e+03	-3.715592e-07	0.000000e+00				-3.700000e+03	-3.715520e-07	1.000000e+03										
-3.600000e+03	-3.614727e-07	0.000000e+00				-3.600000e+03	-3.615437e-07	1.000000e+03										
-3.500000e+03	-3.514226e-07	0.000000e+00				-3.500000e+03	-3.514610e-07	1.000000e+03										
-3.400000e+03	-3.413979e-07	0.000000e+00				-3.400000e+03	-3.413797e-07	1.000000e+03										
-3.300000e+03	-3.313896e-07	0.000000e+00				-3.300000e+03	-3.313714e-07	1.000000e+03										
-3.200000e+03	-3.212685e-07	0.000000e+00				-3.200000e+03	-3.212517e-07	1.000000e+03										
-3.100000e+03	-3.112794e-07	0.000000e+00				-3.100000e+03	-3.112492e-07	1.000000e+03										
-3.000000e+03	-3.012437e-07	0.000000e+00																
