Vd(mV)	Id(A)	Vg(mV)	Temp(Celsius)	Hum(%RH)	Press(Pa)	Vd(mV)	Id(A)	Vg(mV)	Temp(Celsius)	Hum(%RH)	Press(Pa)	Vd(mV)	Id(A)	Vg(mV)	Temp(Celsius)	Hum(%RH)	Press(Pa)	
-2.000000e+04	-1.597733e-06	0.000000e+00				-2.000000e+04	-1.597657e-06	1.000000e+03				-2.000000e+04	-1.597860e-06	2.000000e+03				
-1.990000e+04	-1.589686e-06	0.000000e+00				-1.990000e+04	-1.589920e-06	1.000000e+03				-1.990000e+04	-1.589805e-06	2.000000e+03				
-1.980000e+04	-1.581685e-06	0.000000e+00				-1.980000e+04	-1.581826e-06	1.000000e+03				-1.980000e+04	-1.581861e-06	2.000000e+03				
-1.970000e+04	-1.573741e-06	0.000000e+00				-1.970000e+04	-1.573470e-06	1.000000e+03				-1.970000e+04	-1.573868e-06	2.000000e+03				
-1.960000e+04	-1.566042e-06	0.000000e+00				-1.960000e+04	-1.565812e-06	1.000000e+03				-1.960000e+04	-1.565824e-06	2.000000e+03				
-1.950000e+04	-1.557884e-06	0.000000e+00				-1.950000e+04	-1.556796e-06	1.000000e+03				-1.950000e+04	-1.557681e-06	2.000000e+03				
-1.940000e+04	-1.549096e-06	0.000000e+00				-1.940000e+04	-1.549810e-06	1.000000e+03				-1.940000e+04	-1.549695e-06	2.000000e+03				
-1.930000e+04	-1.541893e-06	0.000000e+00				-1.930000e+04	-1.542275e-06	1.000000e+03				-1.930000e+04	-1.541664e-06	2.000000e+03				
-1.920000e+04	-1.533895e-06	0.000000e+00				-1.920000e+04	-1.533884e-06	1.000000e+03				-1.920000e+04	-1.533406e-06	2.000000e+03				
-1.910000e+04	-1.525871e-06	0.000000e+00				-1.910000e+04	-1.524974e-06	1.000000e+03				-1.910000e+04	-1.525771e-06	2.000000e+03				
-1.900000e+04	-1.517438e-06	0.000000e+00				-1.900000e+04	-1.517851e-06	1.000000e+03				-1.900000e+04	-1.517839e-06	2.000000e+03				
-1.890000e+04	-1.509853e-06	0.000000e+00				-1.890000e+04	-1.509605e-06	1.000000e+03				-1.890000e+04	-1.510460e-06	2.000000e+03				
-1.880000e+04	-1.501936e-06	0.000000e+00				-1.880000e+04	-1.501795e-06	1.000000e+03				-1.880000e+04	-1.501890e-06	2.000000e+03				
-1.870000e+04	-1.493717e-06	0.000000e+00				-1.870000e+04	-1.494328e-06	1.000000e+03				-1.870000e+04	-1.493908e-06	2.000000e+03				
-1.860000e+04	-1.485983e-06	0.000000e+00				-1.860000e+04	-1.485846e-06	1.000000e+03				-1.860000e+04	-1.485880e-06	2.000000e+03				
-1.850000e+04	-1.477928e-06	0.000000e+00				-1.850000e+04	-1.477661e-06	1.000000e+03				-1.850000e+04	-1.477527e-06	2.000000e+03				
-1.840000e+04	-1.469805e-06	0.000000e+00				-1.840000e+04	-1.469999e-06	1.000000e+03				-1.840000e+04	-1.470004e-06	2.000000e+03				
-1.830000e+04	-1.461968e-06	0.000000e+00				-1.830000e+04	-1.461990e-06	1.000000e+03				-1.830000e+04	-1.461983e-06	2.000000e+03				
-1.820000e+04	-1.453867e-06	0.000000e+00				-1.820000e+04	-1.454161e-06	1.000000e+03				-1.820000e+04	-1.453871e-06	2.000000e+03				
-1.810000e+04	-1.445667e-06	0.000000e+00				-1.810000e+04	-1.445954e-06	1.000000e+03				-1.810000e+04	-1.445923e-06	2.000000e+03				
-1.800000e+04	-1.438117e-06	0.000000e+00				-1.800000e+04	-1.438086e-06	1.000000e+03				-1.800000e+04	-1.437846e-06	2.000000e+03				
-1.790000e+04	-1.429550e-06	0.000000e+00				-1.790000e+04	-1.429890e-06	1.000000e+03				-1.790000e+04	-1.430043e-06	2.000000e+03				
-1.780000e+04	-1.421828e-06	0.000000e+00				-1.780000e+04	-1.421468e-06	1.000000e+03				-1.780000e+04	-1.422213e-06	2.000000e+03				
-1.770000e+04	-1.414021e-06	0.000000e+00				-1.770000e+04	-1.413930e-06	1.000000e+03				-1.770000e+04	-1.414212e-06	2.000000e+03				
-1.760000e+04	-1.406073e-06	0.000000e+00				-1.760000e+04	-1.406165e-06	1.000000e+03				-1.760000e+04	-1.406066e-06	2.000000e+03				
-1.750000e+04	-1.398049e-06	0.000000e+00				-1.750000e+04	-1.398015e-06	1.000000e+03				-1.750000e+04	-1.398160e-06	2.000000e+03				
-1.740000e+04	-1.389956e-06	0.000000e+00				-1.740000e+04	-1.389819e-06	1.000000e+03				-1.740000e+04	-1.390010e-06	2.000000e+03				
-1.730000e+04	-1.382069e-06	0.000000e+00				-1.730000e+04	-1.381890e-06	1.000000e+03				-1.730000e+04	-1.382108e-06	2.000000e+03				
-1.720000e+04	-1.374137e-06	0.000000e+00				-1.720000e+04	-1.374060e-06	1.000000e+03				-1.720000e+04	-1.373931e-06	2.000000e+03				
-1.710000e+04	-1.366048e-06	0.000000e+00				-1.710000e+04	-1.366002e-06	1.000000e+03				-1.710000e+04	-1.365925e-06	2.000000e+03				
-1.700000e+04	-1.358207e-06	0.000000e+00				-1.700000e+04	-1.357943e-06	1.000000e+03				-1.700000e+04	-1.358169e-06	2.000000e+03				
-1.690000e+04	-1.349984e-06	0.000000e+00				-1.690000e+04	-1.350278e-06	1.000000e+03				-1.690000e+04	-1.350114e-06	2.000000e+03				
-1.680000e+04	-1.342208e-06	0.000000e+00				-1.680000e+04	-1.342273e-06	1.000000e+03				-1.680000e+04	-1.342063e-06	2.000000e+03				
-1.670000e+04	-1.334138e-06	0.000000e+00				-1.670000e+04	-1.333993e-06	1.000000e+03				-1.670000e+04	-1.334039e-06	2.000000e+03				
-1.660000e+04	-1.326240e-06	0.000000e+00				-1.660000e+04	-1.326137e-06	1.000000e+03				-1.660000e+04	-1.326236e-06	2.000000e+03				
-1.650000e+04	-1.318239e-06	0.000000e+00				-1.650000e+04	-1.318010e-06	1.000000e+03				-1.650000e+04	-1.318319e-06	2.000000e+03				
-1.640000e+04	-1.310035e-06	0.000000e+00				-1.640000e+04	-1.310310e-06	1.000000e+03				-1.640000e+04	-1.310207e-06	2.000000e+03				
-1.630000e+04	-1.302122e-06	0.000000e+00				-1.630000e+04	-1.303657e-06	1.000000e+03				-1.630000e+04	-1.301923e-06	2.000000e+03				
-1.620000e+04	-1.294170e-06	0.000000e+00				-1.620000e+04	-1.293903e-06	1.000000e+03				-1.620000e+04	-1.294197e-06	2.000000e+03				
-1.610000e+04	-1.286501e-06	0.000000e+00				-1.610000e+04	-1.286463e-06	1.000000e+03				-1.610000e+04	-1.286153e-06	2.000000e+03				
-1.600000e+04	-1.278374e-06	0.000000e+00				-1.600000e+04	-1.278251e-06	1.000000e+03				-1.600000e+04	-1.278290e-06	2.000000e+03				
-1.590000e+04	-1.270376e-06	0.000000e+00				-1.590000e+04	-1.270040e-06	1.000000e+03				-1.590000e+04	-1.270201e-06	2.000000e+03				
-1.580000e+04	-1.262378e-06	0.000000e+00				-1.580000e+04	-1.262111e-06	1.000000e+03				-1.580000e+04	-1.262176e-06	2.000000e+03				
-1.570000e+04	-1.254076e-06	0.000000e+00				-1.570000e+04	-1.253980e-06	1.000000e+03				-1.570000e+04	-1.254228e-06	2.000000e+03				
-1.560000e+04	-1.246124e-06	0.000000e+00				-1.560000e+04	-1.246422e-06	1.000000e+03				-1.560000e+04	-1.245971e-06	2.000000e+03				
-1.550000e+04	-1.238249e-06	0.000000e+00				-1.550000e+04	-1.237852e-06	1.000000e+03				-1.550000e+04	-1.238169e-06	2.000000e+03				
-1.540000e+04	-1.230328e-06	0.000000e+00				-1.540000e+04	-1.230305e-06	1.000000e+03										
-1.530000e+04	-1.222341e-06	0.000000e+00				-1.530000e+04	-1.222155e-06	1.000000e+03										
-1.520000e+04	-1.214542e-06	0.000000e+00				-1.520000e+04	-1.214122e-06	1.000000e+03										
-1.510000e+04	-1.206152e-06	0.000000e+00				-1.510000e+04	-1.206228e-06	1.000000e+03										
-1.500000e+04	-1.198494e-06	0.000000e+00				-1.500000e+04	-1.198544e-06	1.000000e+03										
-1.490000e+04	-1.190780e-06	0.000000e+00				-1.490000e+04	-1.190630e-06	1.000000e+03										
-1.480000e+04	-1.182667e-06	0.000000e+00				-1.480000e+04	-1.182549e-06	1.000000e+03										
-1.470000e+04	-1.174456e-06	0.000000e+00				-1.470000e+04	-1.174402e-06	1.000000e+03										
-1.460000e+04	-1.166798e-06	0.000000e+00				-1.460000e+04	-1.166424e-06	1.000000e+03										
-1.450000e+04	-1.158431e-06	0.000000e+00				-1.450000e+04	-1.158434e-06	1.000000e+03										
-1.440000e+04	-1.150506e-06	0.000000e+00				-1.440000e+04	-1.150483e-06	1.000000e+03										
-1.430000e+04	-1.142531e-06	0.000000e+00				-1.430000e+04	-1.142505e-06	1.000000e+03										
-1.420000e+04	-1.134362e-06	0.000000e+00				-1.420000e+04	-1.134442e-06	1.000000e+03										
-1.410000e+04	-1.126345e-06	0.000000e+00				-1.410000e+04	-1.126445e-06	1.000000e+03										
-1.400000e+04	-1.118412e-06	0.000000e+00				-1.400000e+04	-1.118477e-06	1.000000e+03										
-1.390000e+04	-1.110408e-06	0.000000e+00				-1.390000e+04	-1.110465e-06	1.000000e+03										
-1.380000e+04	-1.102513e-06	0.000000e+00				-1.380000e+04	-1.102441e-06	1.000000e+03										
-1.370000e+04	-1.094527e-06	0.000000e+00				-1.370000e+04	-1.094615e-06	1.000000e+03										
-1.360000e+04	-1.086431e-06	0.000000e+00				-1.360000e+04	-1.086786e-06	1.000000e+03										
-1.350000e+04	-1.078521e-06	0.000000e+00				-1.350000e+04	-1.078361e-06	1.000000e+03										
-1.340000e+04	-1.070570e-06	0.000000e+00				-1.340000e+04	-1.070577e-06	1.000000e+03										
-1.330000e+04	-1.062282e-06	0.000000e+00				-1.330000e+04	-1.062465e-06	1.000000e+03										
-1.320000e+04	-1.054459e-06	0.000000e+00				-1.320000e+04	-1.054750e-06	1.000000e+03										
-1.310000e+04	-1.046443e-06	0.000000e+00				-1.310000e+04	-1.046783e-06	1.000000e+03										
-1.300000e+04	-1.038667e-06	0.000000e+00				-1.300000e+04	-1.038614e-06	1.000000e+03										
-1.290000e+04	-1.030563e-06	0.000000e+00				-1.290000e+04	-1.030651e-06	1.000000e+03										
-1.280000e+04	-1.022623e-06	0.000000e+00				-1.280000e+04	-1.022435e-06	1.000000e+03										
-1.270000e+04	-1.014484e-06	0.000000e+00				-1.270000e+04	-1.014652e-06	1.000000e+03										
-1.260000e+04	-1.006830e-06	0.000000e+00				-1.260000e+04	-1.006582e-06	1.000000e+03										
-1.250000e+04	-9.985388e-07	0.000000e+00				-1.250000e+04	-9.985919e-07	1.000000e+03										
-1.240000e+04	-9.906747e-07	0.000000e+00				-1.240000e+04	-9.905256e-07	1.000000e+03										
-1.230000e+04	-9.827534e-07	0.000000e+00				-1.230000e+04	-9.824330e-07	1.000000e+03										
-1.220000e+04	-9.747598e-07	0.000000e+00				-1.220000e+04	-9.745767e-07	1.000000e+03										
-1.210000e+04	-9.665372e-07	0.000000e+00				-1.210000e+04	-9.667585e-07	1.000000e+03										
-1.200000e+04	-9.585818e-07	0.000000e+00				-1.200000e+04	-9.587042e-07	1.000000e+03										
-1.190000e+04	-9.509088e-07	0.000000e+00				-1.190000e+04	-9.507100e-07	1.000000e+03										
-1.180000e+04	-9.426670e-07	0.000000e+00				-1.180000e+04	-9.425029e-07	1.000000e+03										
-1.170000e+04	-9.347648e-07	0.000000e+00				-1.170000e+04	-9.344592e-07	1.000000e+03										
-1.160000e+04	-9.267062e-07	0.000000e+00				-1.160000e+04	-9.269353e-07	1.000000e+03										
-1.150000e+04	-9.187473e-07	0.000000e+00				-1.150000e+04	-9.187240e-07	1.000000e+03										
-1.140000e+04	-9.107460e-07	0.000000e+00				-1.140000e+04	-9.105246e-07	1.000000e+03										
-1.130000e+04	-9.027788e-07	0.000000e+00				-1.130000e+04	-9.028288e-07	1.000000e+03										
-1.120000e+04	-8.947320e-07	0.000000e+00				-1.120000e+04	-8.948807e-07	1.000000e+03										
-1.110000e+04	-8.867188e-07	0.000000e+00				-1.110000e+04	-8.866735e-07	1.000000e+03										
-1.100000e+04	-8.787331e-07	0.000000e+00				-1.100000e+04	-8.787939e-07	1.000000e+03										
-1.090000e+04	-8.704340e-07	0.000000e+00				-1.090000e+04	-8.710450e-07	1.000000e+03										
-1.080000e+04	-8.628564e-07	0.000000e+00				-1.080000e+04	-8.627991e-07	1.000000e+03										
-1.070000e+04	-8.546910e-07	0.000000e+00				-1.070000e+04	-8.548593e-07	1.000000e+03										
-1.060000e+04	-8.467929e-07	0.000000e+00				-1.060000e+04	-8.470448e-07	1.000000e+03										
-1.050000e+04	-8.389594e-07	0.000000e+00				-1.050000e+04	-8.389254e-07	1.000000e+03										
-1.040000e+04	-8.307636e-07	0.000000e+00				-1.040000e+04	-8.305117e-07	1.000000e+03										
-1.030000e+04	-8.227891e-07	0.000000e+00				-1.030000e+04	-8.228613e-07	1.000000e+03										
-1.020000e+04	-8.148869e-07	0.000000e+00				-1.020000e+04	-8.150934e-07	1.000000e+03										
-1.010000e+04	-8.068587e-07	0.000000e+00				-1.010000e+04	-8.068629e-07	1.000000e+03										
-1.000000e+04	-7.988998e-07	0.000000e+00				-1.000000e+04	-7.991213e-07	1.000000e+03										
-9.900000e+03	-7.908639e-07	0.000000e+00				-9.900000e+03	-7.907458e-07	1.000000e+03										
-9.800000e+03	-7.828591e-07	0.000000e+00				-9.800000e+03	-7.827331e-07	1.000000e+03										
-9.700000e+03	-7.748918e-07	0.000000e+00				-9.700000e+03	-7.750064e-07	1.000000e+03										
-9.600000e+03	-7.668409e-07	0.000000e+00				-9.600000e+03	-7.678530e-07	1.000000e+03										
-9.500000e+03	-7.591452e-07	0.000000e+00				-9.500000e+03	-7.589082e-07	1.000000e+03										
-9.400000e+03	-7.516672e-07	0.000000e+00				-9.400000e+03	-7.510675e-07	1.000000e+03										
-9.300000e+03	-7.431808e-07	0.000000e+00				-9.300000e+03	-7.429404e-07	1.000000e+03										
-9.200000e+03	-7.348089e-07	0.000000e+00				-9.200000e+03	-7.350536e-07	1.000000e+03										
-9.100000e+03	-7.268918e-07	0.000000e+00				-9.100000e+03	-7.270141e-07	1.000000e+03										
-9.000000e+03	-7.188827e-07	0.000000e+00				-9.000000e+03	-7.191578e-07	1.000000e+03										
-8.900000e+03	-7.110307e-07	0.000000e+00				-8.900000e+03	-7.109888e-07	1.000000e+03										
-8.800000e+03	-7.031171e-07	0.000000e+00				-8.800000e+03	-7.031666e-07	1.000000e+03										
-8.700000e+03	-6.946730e-07	0.000000e+00				-8.700000e+03	-6.950585e-07	1.000000e+03										
-8.600000e+03	-6.871109e-07	0.000000e+00				-8.600000e+03	-6.871759e-07	1.000000e+03										
-8.500000e+03	-6.791174e-07	0.000000e+00				-8.500000e+03	-6.793042e-07	1.000000e+03										
-8.400000e+03	-6.711614e-07	0.000000e+00				-8.400000e+03	-6.709478e-07	1.000000e+03										
-8.300000e+03	-6.630116e-07	0.000000e+00				-8.300000e+03	-6.627747e-07	1.000000e+03										
-8.200000e+03	-6.550598e-07	0.000000e+00				-8.200000e+03	-6.553689e-07	1.000000e+03										
-8.100000e+03	-6.470281e-07	0.000000e+00				-8.100000e+03	-6.469976e-07	1.000000e+03										
-8.000000e+03	-6.391987e-07	0.000000e+00				-8.000000e+03	-8.030342e-07	1.000000e+03										
-7.900000e+03	-7.930024e-07	0.000000e+00				-7.900000e+03	-7.928978e-07	1.000000e+03										
-7.800000e+03	-7.828832e-07	0.000000e+00				-7.800000e+03	-7.829523e-07	1.000000e+03										
-7.700000e+03	-7.729094e-07	0.000000e+00				-7.700000e+03	-7.729094e-07	1.000000e+03										
-7.600000e+03	-7.628829e-07	0.000000e+00				-7.600000e+03	-7.628517e-07	1.000000e+03										
-7.500000e+03	-7.528189e-07	0.000000e+00				-7.500000e+03	-7.528252e-07	1.000000e+03										
-7.400000e+03	-7.427765e-07	0.000000e+00				-7.400000e+03	-7.428048e-07	1.000000e+03										
-7.300000e+03	-7.328123e-07	0.000000e+00				-7.300000e+03	-7.327264e-07	1.000000e+03										
-7.200000e+03	-7.228089e-07	0.000000e+00				-7.200000e+03	-7.227771e-07	1.000000e+03										
-7.100000e+03	-7.126571e-07	0.000000e+00				-7.100000e+03	-7.127617e-07	1.000000e+03										
-7.000000e+03	-7.027251e-07	0.000000e+00				-7.000000e+03	-7.026766e-07	1.000000e+03										
-6.900000e+03	-6.925953e-07	0.000000e+00				-6.900000e+03	-6.926674e-07	1.000000e+03										
-6.800000e+03	-6.826077e-07	0.000000e+00				-6.800000e+03	-6.826859e-07	1.000000e+03										
-6.700000e+03	-6.725783e-07	0.000000e+00				-6.700000e+03	-6.726233e-07	1.000000e+03										
-6.600000e+03	-6.625540e-07	0.000000e+00				-6.600000e+03	-6.625330e-07	1.000000e+03										
-6.500000e+03	-6.525161e-07	0.000000e+00				-6.500000e+03	-6.525189e-07	1.000000e+03										
-6.400000e+03	-6.423196e-07	0.000000e+00				-6.400000e+03	-6.424007e-07	1.000000e+03										
-6.300000e+03	-6.323602e-07	0.000000e+00				-6.300000e+03	-6.323564e-07	1.000000e+03										
-6.200000e+03	-6.224224e-07	0.000000e+00				-6.200000e+03	-6.223764e-07	1.000000e+03										
-6.100000e+03	-6.123263e-07	0.000000e+00				-6.100000e+03	-6.122893e-07	1.000000e+03										
-6.000000e+03	-6.023588e-07	0.000000e+00				-6.000000e+03	-6.022744e-07	1.000000e+03										
-5.900000e+03	-5.922713e-07	0.000000e+00				-5.900000e+03	-5.922213e-07	1.000000e+03										
-5.800000e+03	-5.822558e-07	0.000000e+00				-5.800000e+03	-5.822366e-07	1.000000e+03										
-5.700000e+03	-5.721654e-07	0.000000e+00				-5.700000e+03	-5.721961e-07	1.000000e+03										
-5.600000e+03	-5.621797e-07	0.000000e+00				-5.600000e+03	-5.621000e-07	1.000000e+03										
-5.500000e+03	-5.520816e-07	0.000000e+00				-5.500000e+03	-5.521963e-07	1.000000e+03										
-5.400000e+03	-5.420819e-07	0.000000e+00				-5.400000e+03	-5.422893e-07	1.000000e+03										
-5.300000e+03	-5.322358e-07	0.000000e+00				-5.300000e+03	-5.320343e-07	1.000000e+03										
-5.200000e+03	-5.220087e-07	0.000000e+00				-5.200000e+03	-5.220912e-07	1.000000e+03										
-5.100000e+03	-5.120469e-07	0.000000e+00				-5.100000e+03	-5.120397e-07	1.000000e+03										
-5.000000e+03	-5.020281e-07	0.000000e+00				-5.000000e+03	-5.020065e-07	1.000000e+03										
-4.900000e+03	-4.916027e-07	0.000000e+00				-4.900000e+03	-4.918566e-07	1.000000e+03										
-4.800000e+03	-4.818579e-07	0.000000e+00				-4.800000e+03	-4.818742e-07	1.000000e+03										
-4.700000e+03	-4.718059e-07	0.000000e+00				-4.700000e+03	-4.717983e-07	1.000000e+03										
-4.600000e+03	-4.618254e-07	0.000000e+00				-4.600000e+03	-4.618140e-07	1.000000e+03										
-4.500000e+03	-4.518090e-07	0.000000e+00				-4.500000e+03	-4.517192e-07	1.000000e+03										
-4.400000e+03	-4.417182e-07	0.000000e+00				-4.400000e+03	-4.416956e-07	1.000000e+03										
-4.300000e+03	-4.317372e-07	0.000000e+00				-4.300000e+03	-4.316460e-07	1.000000e+03										
-4.200000e+03	-4.217505e-07	0.000000e+00				-4.200000e+03	-4.216881e-07	1.000000e+03										
-4.100000e+03	-4.116764e-07	0.000000e+00				-4.100000e+03	-4.117584e-07	1.000000e+03										
-4.000000e+03	-4.015759e-07	0.000000e+00				-4.000000e+03	-4.016412e-07	1.000000e+03										
-3.900000e+03	-3.916612e-07	0.000000e+00				-3.900000e+03	-3.916147e-07	1.000000e+03										
-3.800000e+03	-3.815449e-07	0.000000e+00				-3.800000e+03	-3.815593e-07	1.000000e+03										
-3.700000e+03	-3.715736e-07	0.000000e+00				-3.700000e+03	-3.716134e-07	1.000000e+03										
-3.600000e+03	-3.614736e-07	0.000000e+00				-3.600000e+03	-3.615183e-07	1.000000e+03										
-3.500000e+03	-3.514350e-07	0.000000e+00				-3.500000e+03	-3.514739e-07	1.000000e+03										
-3.400000e+03	-3.414713e-07	0.000000e+00				-3.400000e+03	-3.414339e-07	1.000000e+03										
-3.300000e+03	-3.314630e-07	0.000000e+00				-3.300000e+03	-3.313671e-07	1.000000e+03										
-3.200000e+03	-3.214159e-07	0.000000e+00				-3.200000e+03	-3.212743e-07	1.000000e+03										
-3.100000e+03	-3.114028e-07	0.000000e+00				-3.100000e+03	-3.113481e-07	1.000000e+03										
-3.000000e+03	-3.013028e-07	0.000000e+00				-3.000000e+03	-3.012898e-07	1.000000e+03										
-2.900000e+03	-2.912033e-07	0.000000e+00				-2.900000e+03	-2.912489e-07	1.000000e+03										
-2.800000e+03	-2.812430e-07	0.000000e+00				-2.800000e+03	-2.811878e-07	1.000000e+03										
-2.700000e+03	-2.711915e-07	0.000000e+00				-2.700000e+03	-2.713374e-07	1.000000e+03										
-2.600000e+03	-2.611323e-07	0.000000e+00				-2.600000e+03	-2.610488e-07	1.000000e+03										
-2.500000e+03	-2.512411e-07	0.000000e+00				-2.500000e+03	-2.510894e-07	1.000000e+03										
-2.400000e+03	-2.410912e-07	0.000000e+00				-2.400000e+03	-2.410783e-07	1.000000e+03										
-2.300000e+03	-2.311439e-07	0.000000e+00				-2.300000e+03	-2.309231e-07	1.000000e+03										
-2.200000e+03	-2.210420e-07	0.000000e+00				-2.200000e+03	-2.209666e-07	1.000000e+03										
-2.100000e+03	-2.109180e-07	0.000000e+00				-2.100000e+03	-2.108887e-07	1.000000e+03										
-2.000000e+03	-2.009236e-07	0.000000e+00				-2.000000e+03	-2.008271e-07	1.000000e+03										
-1.900000e+03	-1.908313e-07	0.000000e+00				-1.900000e+03	-1.908495e-07	1.000000e+03										
-1.800000e+03	-1.808374e-07	0.000000e+00				-1.800000e+03	-1.809334e-07	1.000000e+03										
-1.700000e+03	-1.708569e-07	0.000000e+00				-1.700000e+03	-1.707614e-07	1.000000e+03										
-1.600000e+03	-1.608092e-07	0.000000e+00				-1.600000e+03	-1.607762e-07	1.000000e+03										
-1.500000e+03	-1.507669e-07	0.000000e+00				-1.500000e+03	-1.507607e-07	1.000000e+03										
-1.400000e+03	-1.406880e-07	0.000000e+00				-1.400000e+03	-1.407173e-07	1.000000e+03										
-1.300000e+03	-1.306725e-07	0.000000e+00				-1.300000e+03	-1.307257e-07	1.000000e+03										
-1.200000e+03	-1.207170e-07	0.000000e+00				-1.200000e+03	-1.206239e-07	1.000000e+03										
-1.100000e+03	-1.106170e-07	0.000000e+00				-1.100000e+03	-1.106775e-07	1.000000e+03										
