Vd(mV)	Id(A)	Vg(mV)	Temp(Celsius)	Hum(%RH)	Press(Pa)	Vd(mV)	Id(A)	Vg(mV)	Temp(Celsius)	Hum(%RH)	Press(Pa)	Vd(mV)	Id(A)	Vg(mV)	Temp(Celsius)	Hum(%RH)	Press(Pa)	
-2.000000e+04	-2.006216e-06	0.000000e+00	2.500000e+01	2.500000e+01	1.192470e+05	-2.000000e+04	-2.006308e-06	1.000000e+03	2.500000e+01	2.500000e+01	1.192470e+05							
-1.990000e+04	-1.996183e-06	0.000000e+00	2.500000e+01	2.500000e+01	1.192470e+05	-1.990000e+04	-1.996288e-06	1.000000e+03	2.500000e+01	2.500000e+01	1.192470e+05							
-1.980000e+04	-1.986346e-06	0.000000e+00	2.500000e+01	2.500000e+01	1.192470e+05	-1.980000e+04	-1.986245e-06	1.000000e+03	2.500000e+01	2.500000e+01	1.192470e+05							
-1.970000e+04	-1.976321e-06	0.000000e+00	2.500000e+01	2.500000e+01	1.192470e+05	-1.970000e+04	-1.976144e-06	1.000000e+03	2.500000e+01	2.500000e+01	1.192470e+05							
-1.960000e+04	-1.966225e-06	0.000000e+00	2.500000e+01	2.500000e+01	1.192470e+05	-1.960000e+04	-1.966311e-06	1.000000e+03	2.500000e+01	2.500000e+01	1.192470e+05							
-1.950000e+04	-1.956292e-06	0.000000e+00	2.500000e+01	2.500000e+01	1.192470e+05	-1.950000e+04	-1.955755e-06	1.000000e+03	2.500000e+01	2.500000e+01	1.192470e+05							
-1.940000e+04	-1.946388e-06	0.000000e+00	2.500000e+01	2.500000e+01	1.192470e+05	-1.940000e+04	-1.946230e-06	1.000000e+03	2.500000e+01	2.500000e+01	1.192470e+05							
-1.930000e+04	-1.936374e-06	0.000000e+00	2.500000e+01	2.500000e+01	1.192470e+05	-1.930000e+04	-1.936320e-06	1.000000e+03	2.500000e+01	2.500000e+01	1.192470e+05							
-1.920000e+04	-1.926253e-06	0.000000e+00	2.500000e+01	2.500000e+01	1.192470e+05	-1.920000e+04	-1.925721e-06	1.000000e+03	2.500000e+01	2.500000e+01	1.192470e+05							
-1.910000e+04	-1.916014e-06	0.000000e+00	2.500000e+01	2.500000e+01	1.192470e+05	-1.910000e+04	-1.916100e-06	1.000000e+03	2.500000e+01	2.500000e+01	1.192470e+05							
-1.900000e+04	-1.905826e-06	0.000000e+00	2.500000e+01	2.500000e+01	1.192470e+05	-1.900000e+04	-1.905926e-06	1.000000e+03	2.500000e+01	2.500000e+01	1.192470e+05							
-1.890000e+04	-1.896042e-06	0.000000e+00	2.500000e+01	2.500000e+01	1.192470e+05	-1.890000e+04	-1.895812e-06	1.000000e+03	2.500000e+01	2.500000e+01	1.192470e+05							
-1.880000e+04	-1.885677e-06	0.000000e+00	2.500000e+01	2.500000e+01	1.192470e+05	-1.880000e+04	-1.885873e-06	1.000000e+03	2.500000e+01	2.500000e+01	1.192470e+05							
-1.870000e+04	-1.875965e-06	0.000000e+00	2.500000e+01	2.500000e+01	1.192470e+05	-1.870000e+04	-1.875494e-06	1.000000e+03	2.500000e+01	2.500000e+01	1.192470e+05							
-1.860000e+04	-1.865695e-06	0.000000e+00	2.500000e+01	2.500000e+01	1.192470e+05	-1.860000e+04	-1.865743e-06	1.000000e+03	2.500000e+01	2.500000e+01	1.192470e+05							
-1.850000e+04	-1.855849e-06	0.000000e+00	2.500000e+01	2.500000e+01	1.192470e+05	-1.850000e+04	-1.855671e-06	1.000000e+03	2.500000e+01	2.500000e+01	1.192470e+05							
-1.840000e+04	-1.846079e-06	0.000000e+00	2.500000e+01	2.500000e+01	1.192470e+05	-1.840000e+04	-1.845777e-06	1.000000e+03	2.500000e+01	2.500000e+01	1.192470e+05							
-1.830000e+04	-1.835911e-06	0.000000e+00	2.500000e+01	2.500000e+01	1.192470e+05	-1.830000e+04	-1.835988e-06	1.000000e+03	2.500000e+01	2.500000e+01	1.192470e+05							
-1.820000e+04	-1.825417e-06	0.000000e+00	2.500000e+01	2.500000e+01	1.192470e+05	-1.820000e+04	-1.826016e-06	1.000000e+03	2.500000e+01	2.500000e+01	1.192470e+05							
-1.810000e+04	-1.815800e-06	0.000000e+00	2.500000e+01	2.500000e+01	1.192470e+05	-1.810000e+04	-1.815934e-06	1.000000e+03	2.500000e+01	2.500000e+01	1.192470e+05							
-1.800000e+04	-1.805676e-06	0.000000e+00	2.500000e+01	2.500000e+01	1.192470e+05	-1.800000e+04	-1.805828e-06	1.000000e+03	2.500000e+01	2.500000e+01	1.192470e+05							
-1.790000e+04	-1.796140e-06	0.000000e+00	2.500000e+01	2.500000e+01	1.192470e+05	-1.790000e+04	-1.795804e-06	1.000000e+03	2.500000e+01	2.500000e+01	1.192470e+05							
-1.780000e+04	-1.785838e-06	0.000000e+00	2.500000e+01	2.500000e+01	1.192470e+05	-1.780000e+04	-1.785747e-06	1.000000e+03	2.500000e+01	2.500000e+01	1.192470e+05							
-1.770000e+04	-1.775329e-06	0.000000e+00	2.500000e+01	2.500000e+01	1.192470e+05	-1.770000e+04	-1.775679e-06	1.000000e+03	2.500000e+01	2.500000e+01	1.192470e+05							
-1.760000e+04	-1.765497e-06	0.000000e+00	2.500000e+01	2.500000e+01	1.192470e+05	-1.760000e+04	-1.765549e-06	1.000000e+03	2.500000e+01	2.500000e+01	1.192470e+05							
-1.750000e+04	-1.755247e-06	0.000000e+00	2.500000e+01	2.500000e+01	1.192470e+05	-1.750000e+04	-1.755683e-06	1.000000e+03	2.500000e+01	2.500000e+01	1.192470e+05							
-1.740000e+04	-1.745165e-06	0.000000e+00	2.500000e+01	2.500000e+01	1.192470e+05	-1.740000e+04	-1.745367e-06	1.000000e+03	2.500000e+01	2.500000e+01	1.192470e+05							
-1.730000e+04	-1.735391e-06	0.000000e+00	2.500000e+01	2.500000e+01	1.192470e+05	-1.730000e+04	-1.735299e-06	1.000000e+03	2.500000e+01	2.500000e+01	1.192470e+05							
-1.720000e+04	-1.725496e-06	0.000000e+00	2.500000e+01	2.500000e+01	1.192470e+05	-1.720000e+04	-1.725424e-06	1.000000e+03	2.500000e+01	2.500000e+01	1.192470e+05							
-1.710000e+04	-1.715452e-06	0.000000e+00	2.500000e+01	2.500000e+01	1.192470e+05	-1.710000e+04	-1.715266e-06	1.000000e+03	2.500000e+01	2.500000e+01	1.192470e+05							
-1.700000e+04	-1.705692e-06	0.000000e+00	2.500000e+01	2.500000e+01	1.192470e+05	-1.700000e+04	-1.705462e-06	1.000000e+03	2.500000e+01	2.500000e+01	1.192470e+05							
-1.690000e+04	-1.694896e-06	0.000000e+00	2.500000e+01	2.500000e+01	1.192470e+05	-1.690000e+04	-1.695366e-06	1.000000e+03	2.500000e+01	2.500000e+01	1.192470e+05							
-1.680000e+04	-1.684838e-06	0.000000e+00	2.500000e+01	2.500000e+01	1.192470e+05	-1.680000e+04	-1.684972e-06	1.000000e+03	2.500000e+01	2.500000e+01	1.192470e+05							
-1.670000e+04	-1.675490e-06	0.000000e+00	2.500000e+01	2.500000e+01	1.192470e+05	-1.670000e+04	-1.675082e-06	1.000000e+03	2.500000e+01	2.500000e+01	1.192470e+05							
-1.660000e+04	-1.665274e-06	0.000000e+00	2.500000e+01	2.500000e+01	1.192470e+05	-1.660000e+04	-1.665197e-06	1.000000e+03	2.500000e+01	2.500000e+01	1.192470e+05							
-1.650000e+04	-1.655283e-06	0.000000e+00	2.500000e+01	2.500000e+01	1.192470e+05	-1.650000e+04	-1.655169e-06	1.000000e+03	2.500000e+01	2.500000e+01	1.192470e+05							
-1.640000e+04	-1.645039e-06	0.000000e+00	2.500000e+01	2.500000e+01	1.192470e+05	-1.640000e+04	-1.644953e-06	1.000000e+03	2.500000e+01	2.500000e+01	1.192470e+05							
-1.630000e+04	-1.634923e-06	0.000000e+00	2.500000e+01	2.500000e+01	1.192470e+05	-1.630000e+04	-1.634851e-06	1.000000e+03	2.500000e+01	2.500000e+01	1.192470e+05							
-1.620000e+04	-1.624976e-06	0.000000e+00	2.500000e+01	2.500000e+01	1.192470e+05	-1.620000e+04	-1.625124e-06	1.000000e+03	2.500000e+01	2.500000e+01	1.192470e+05							
-1.610000e+04	-1.615273e-06	0.000000e+00	2.500000e+01	2.500000e+01	1.192470e+05	-1.610000e+04	-1.614702e-06	1.000000e+03	2.500000e+01	2.500000e+01	1.192470e+05							
-1.600000e+04	-1.604630e-06	0.000000e+00	2.500000e+01	2.500000e+01	1.192470e+05	-1.600000e+04	-1.604836e-06	1.000000e+03	2.500000e+01	2.500000e+01	1.192470e+05							
-1.590000e+04	-1.594706e-06	0.000000e+00	2.500000e+01	2.500000e+01	1.192470e+05	-1.590000e+04	-1.595152e-06	1.000000e+03	2.500000e+01	2.500000e+01	1.192470e+05							
-1.580000e+04	-1.585220e-06	0.000000e+00	2.500000e+01	2.500000e+01	1.192470e+05	-1.580000e+04	-1.584592e-06	1.000000e+03	2.500000e+01	2.500000e+01	1.192470e+05							
-1.570000e+04	-1.573896e-06	0.000000e+00	2.500000e+01	2.500000e+01	1.192470e+05	-1.570000e+04	-1.574831e-06	1.000000e+03	2.500000e+01	2.500000e+01	1.192470e+05							
-1.560000e+04	-1.565061e-06	0.000000e+00	2.500000e+01	2.500000e+01	1.192470e+05	-1.560000e+04	-1.564778e-06	1.000000e+03	2.500000e+01	2.500000e+01	1.192470e+05							
-1.550000e+04	-1.554778e-06	0.000000e+00	2.500000e+01	2.500000e+01	1.192470e+05	-1.550000e+04	-1.555041e-06	1.000000e+03	2.500000e+01	2.500000e+01	1.192470e+05							
-1.540000e+04	-1.544835e-06	0.000000e+00	2.500000e+01	2.500000e+01	1.192470e+05	-1.540000e+04	-1.545022e-06	1.000000e+03	2.500000e+01	2.500000e+01	1.192470e+05							
-1.530000e+04	-1.534671e-06	0.000000e+00	2.500000e+01	2.500000e+01	1.192470e+05	-1.530000e+04	-1.534797e-06	1.000000e+03	2.500000e+01	2.500000e+01	1.192470e+05							
-1.520000e+04	-1.524479e-06	0.000000e+00	2.500000e+01	2.500000e+01	1.192470e+05	-1.520000e+04	-1.524782e-06	1.000000e+03	2.500000e+01	2.500000e+01	1.192470e+05							
-1.510000e+04	-1.514393e-06	0.000000e+00	2.500000e+01	2.500000e+01	1.192470e+05	-1.510000e+04	-1.514695e-06	1.000000e+03	2.500000e+01	2.500000e+01	1.192470e+05							
-1.500000e+04	-1.505314e-06	0.000000e+00	2.500000e+01	2.500000e+01	1.192470e+05	-1.500000e+04	-1.504638e-06	1.000000e+03	2.500000e+01	2.500000e+01	1.192470e+05							
-1.490000e+04	-1.494666e-06	0.000000e+00	2.500000e+01	2.500000e+01	1.192470e+05	-1.490000e+04	-1.495112e-06	1.000000e+03	2.500000e+01	2.500000e+01	1.192470e+05							
-1.480000e+04	-1.484541e-06	0.000000e+00	2.500000e+01	2.500000e+01	1.192470e+05	-1.480000e+04	-1.484450e-06	1.000000e+03	2.500000e+01	2.500000e+01	1.192470e+05							
-1.470000e+04	-1.474488e-06	0.000000e+00	2.500000e+01	2.500000e+01	1.192470e+05	-1.470000e+04	-1.474949e-06	1.000000e+03	2.500000e+01	2.500000e+01	1.192470e+05							
-1.460000e+04	-1.464387e-06	0.000000e+00	2.500000e+01	2.500000e+01	1.192470e+05	-1.460000e+04	-1.465365e-06	1.000000e+03	2.500000e+01	2.500000e+01	1.192470e+05							
-1.450000e+04	-1.454181e-06	0.000000e+00	2.500000e+01	2.500000e+01	1.192470e+05	-1.450000e+04	-1.454517e-06	1.000000e+03	2.500000e+01	2.500000e+01	1.192470e+05							
-1.440000e+04	-1.444430e-06	0.000000e+00	2.500000e+01	2.500000e+01	1.192470e+05	-1.440000e+04	-1.444751e-06	1.000000e+03	2.500000e+01	2.500000e+01	1.192470e+05							
-1.430000e+04	-1.434564e-06	0.000000e+00	2.500000e+01	2.500000e+01	1.192470e+05	-1.430000e+04	-1.434373e-06	1.000000e+03	2.500000e+01	2.500000e+01	1.192470e+05							
-1.420000e+04	-1.424482e-06	0.000000e+00	2.500000e+01	2.500000e+01	1.192470e+05	-1.420000e+04	-1.424477e-06	1.000000e+03	2.500000e+01	2.500000e+01	1.192470e+05							
-1.410000e+04	-1.414468e-06	0.000000e+00	2.500000e+01	2.500000e+01	1.192470e+05	-1.410000e+04	-1.414401e-06	1.000000e+03	2.500000e+01	2.500000e+01	1.192470e+05							
-1.400000e+04	-1.404151e-06	0.000000e+00	2.500000e+01	2.500000e+01	1.192470e+05	-1.400000e+04	-1.404477e-06	1.000000e+03	2.500000e+01	2.500000e+01	1.192470e+05							
-1.390000e+04	-1.394520e-06	0.000000e+00	2.500000e+01	2.500000e+01	1.192470e+05	-1.390000e+04	-1.394486e-06	1.000000e+03	2.500000e+01	2.500000e+01	1.192470e+05							
-1.380000e+04	-1.384347e-06	0.000000e+00	2.500000e+01	2.500000e+01	1.192470e+05	-1.380000e+04	-1.384338e-06	1.000000e+03	2.500000e+01	2.500000e+01	1.192470e+05							
-1.370000e+04	-1.374366e-06	0.000000e+00	2.500000e+01	2.500000e+01	1.192470e+05	-1.370000e+04	-1.374558e-06	1.000000e+03	2.500000e+01	2.500000e+01	1.192470e+05							
-1.360000e+04	-1.364356e-06	0.000000e+00	2.500000e+01	2.500000e+01	1.192470e+05	-1.360000e+04	-1.364299e-06	1.000000e+03	2.500000e+01	2.500000e+01	1.192470e+05							
-1.350000e+04	-1.354241e-06	0.000000e+00	2.500000e+01	2.500000e+01	1.192470e+05	-1.350000e+04	-1.354064e-06	1.000000e+03	2.500000e+01	2.500000e+01	1.192470e+05							
-1.340000e+04	-1.344107e-06	0.000000e+00	2.500000e+01	2.500000e+01	1.192470e+05	-1.340000e+04	-1.344299e-06	1.000000e+03	2.500000e+01	2.500000e+01	1.192470e+05							
-1.330000e+04	-1.334241e-06	0.000000e+00	2.500000e+01	2.500000e+01	1.192470e+05	-1.330000e+04	-1.334217e-06	1.000000e+03	2.500000e+01	2.500000e+01	1.192470e+05							
-1.320000e+04	-1.324073e-06	0.000000e+00	2.500000e+01	2.500000e+01	1.192470e+05	-1.320000e+04	-1.324231e-06	1.000000e+03	2.500000e+01	2.500000e+01	1.192470e+05							
-1.310000e+04	-1.312748e-06	0.000000e+00	2.500000e+01	2.500000e+01	1.192470e+05	-1.310000e+04	-1.314706e-06	1.000000e+03	2.500000e+01	2.500000e+01	1.192470e+05							
-1.300000e+04	-1.304192e-06	0.000000e+00	2.500000e+01	2.500000e+01	1.192470e+05	-1.300000e+04	-1.304039e-06	1.000000e+03	2.500000e+01	2.500000e+01	1.192470e+05							
-1.290000e+04	-1.294182e-06	0.000000e+00	2.500000e+01	2.500000e+01	1.192470e+05	-1.290000e+04	-1.293818e-06	1.000000e+03	2.500000e+01	2.500000e+01	1.192470e+05							
-1.280000e+04	-1.284043e-06	0.000000e+00	2.500000e+01	2.500000e+01	1.192470e+05	-1.280000e+04	-1.283990e-06	1.000000e+03	2.500000e+01	2.500000e+01	1.192470e+05							
-1.270000e+04	-1.273818e-06	0.000000e+00	2.500000e+01	2.500000e+01	1.192470e+05	-1.270000e+04	-1.273904e-06	1.000000e+03	2.500000e+01	2.500000e+01	1.192470e+05							
-1.260000e+04	-1.263802e-06	0.000000e+00	2.500000e+01	2.500000e+01	1.192470e+05	-1.260000e+04	-1.263836e-06	1.000000e+03	2.500000e+01	2.500000e+01	1.192470e+05							
-1.250000e+04	-1.253956e-06	0.000000e+00	2.500000e+01	2.500000e+01	1.192470e+05	-1.250000e+04	-1.253860e-06	1.000000e+03	2.500000e+01	2.500000e+01	1.192470e+05							
-1.240000e+04	-1.244177e-06	0.000000e+00	2.500000e+01	2.500000e+01	1.192470e+05	-1.240000e+04	-1.243961e-06	1.000000e+03	2.500000e+01	2.500000e+01	1.192470e+05							
-1.230000e+04	-1.233706e-06	0.000000e+00	2.500000e+01	2.500000e+01	1.192470e+05	-1.230000e+04	-1.234195e-06	1.000000e+03	2.500000e+01	2.500000e+01	1.192470e+05							
-1.220000e+04	-1.224123e-06	0.000000e+00	2.500000e+01	2.500000e+01	1.192470e+05	-1.220000e+04	-1.224109e-06	1.000000e+03	2.500000e+01	2.500000e+01	1.192470e+05							
-1.210000e+04	-1.213759e-06	0.000000e+00	2.500000e+01	2.500000e+01	1.192470e+05	-1.210000e+04	-1.213787e-06	1.000000e+03	2.500000e+01	2.500000e+01	1.192470e+05							
-1.200000e+04	-1.203825e-06	0.000000e+00	2.500000e+01	2.500000e+01	1.192470e+05	-1.200000e+04	-1.203753e-06	1.000000e+03	2.500000e+01	2.500000e+01	1.192470e+05							
-1.190000e+04	-1.193768e-06	0.000000e+00	2.500000e+01	2.500000e+01	1.192470e+05	-1.190000e+04	-1.194122e-06	1.000000e+03	2.500000e+01	2.500000e+01	1.192470e+05							
-1.180000e+04	-1.183753e-06	0.000000e+00	2.500000e+01	2.500000e+01	1.192470e+05	-1.180000e+04	-1.183912e-06	1.000000e+03	2.500000e+01	2.500000e+01	1.192470e+05							
-1.170000e+04	-1.173604e-06	0.000000e+00	2.500000e+01	2.500000e+01	1.192470e+05	-1.170000e+04	-1.173858e-06	1.000000e+03	2.500000e+01	2.500000e+01	1.192470e+05							
-1.160000e+04	-1.163608e-06	0.000000e+00	2.500000e+01	2.500000e+01	1.192470e+05	-1.160000e+04	-1.163614e-06	1.000000e+03	2.500000e+01	2.500000e+01	1.192470e+05							
-1.150000e+04	-1.153446e-06	0.000000e+00	2.500000e+01	2.500000e+01	1.192470e+05	-1.150000e+04	-1.153800e-06	1.000000e+03	2.500000e+01	2.500000e+01	1.192470e+05							
-1.140000e+04	-1.143541e-06	0.000000e+00	2.500000e+01	2.500000e+01	1.192470e+05	-1.140000e+04	-1.143843e-06	1.000000e+03	2.500000e+01	2.500000e+01	1.192470e+05							
-1.130000e+04	-1.133632e-06	0.000000e+00	2.500000e+01	2.500000e+01	1.192470e+05	-1.130000e+04	-1.133483e-06	1.000000e+03	2.500000e+01	2.500000e+01	1.192470e+05							
-1.120000e+04	-1.123435e-06	0.000000e+00	2.500000e+01	2.500000e+01	1.192470e+05	-1.120000e+04	-1.123751e-06	1.000000e+03	2.500000e+01	2.500000e+01	1.192470e+05							
-1.110000e+04	-1.113655e-06	0.000000e+00	2.500000e+01	2.500000e+01	1.192470e+05	-1.110000e+04	-1.113415e-06	1.000000e+03	2.500000e+01	2.500000e+01	1.192470e+05							
-1.100000e+04	-1.103430e-06	0.000000e+00	2.500000e+01	2.500000e+01	1.192470e+05	-1.100000e+04	-1.103175e-06	1.000000e+03	2.500000e+01	2.500000e+01	1.192470e+05							
-1.090000e+04	-1.093396e-06	0.000000e+00	2.500000e+01	2.500000e+01	1.192470e+05	-1.090000e+04	-1.093367e-06	1.000000e+03	2.500000e+01	2.500000e+01	1.192470e+05							
-1.080000e+04	-1.083386e-06	0.000000e+00	2.500000e+01	2.500000e+01	1.192470e+05	-1.080000e+04	-1.083401e-06	1.000000e+03	2.500000e+01	2.500000e+01	1.192470e+05							
-1.070000e+04	-1.073396e-06	0.000000e+00	2.500000e+01	2.500000e+01	1.192470e+05	-1.070000e+04	-1.073012e-06	1.000000e+03	2.500000e+01	2.500000e+01	1.192470e+05							
-1.060000e+04	-1.062801e-06	0.000000e+00	2.500000e+01	2.500000e+01	1.192470e+05	-1.060000e+04	-1.063256e-06	1.000000e+03	2.500000e+01	2.500000e+01	1.192470e+05							
-1.050000e+04	-1.053462e-06	0.000000e+00	2.500000e+01	2.500000e+01	1.192470e+05	-1.050000e+04	-1.053290e-06	1.000000e+03	2.500000e+01	2.500000e+01	1.192470e+05							
-1.040000e+04	-1.043122e-06	0.000000e+00	2.500000e+01	2.500000e+01	1.192470e+05	-1.040000e+04	-1.043155e-06	1.000000e+03	2.500000e+01	2.500000e+01	1.192470e+05							
-1.030000e+04	-1.033261e-06	0.000000e+00	2.500000e+01	2.500000e+01	1.192470e+05	-1.030000e+04	-1.033189e-06	1.000000e+03	2.500000e+01	2.500000e+01	1.192470e+05							
-1.020000e+04	-1.023179e-06	0.000000e+00	2.500000e+01	2.500000e+01	1.192470e+05	-1.020000e+04	-1.023409e-06	1.000000e+03	2.500000e+01	2.500000e+01	1.192470e+05							
-1.010000e+04	-1.013365e-06	0.000000e+00	2.500000e+01	2.500000e+01	1.192470e+05	-1.010000e+04	-1.013260e-06	1.000000e+03	2.500000e+01	2.500000e+01	1.192470e+05							
-1.000000e+04	-1.003298e-06	0.000000e+00	2.500000e+01	2.500000e+01	1.192470e+05	-1.000000e+04	-1.002809e-06	1.000000e+03	2.500000e+01	2.500000e+01	1.192470e+05							
-9.900000e+03	-9.923772e-07	0.000000e+00	2.500000e+01	2.500000e+01	1.192470e+05	-9.900000e+03	-9.933319e-07	1.000000e+03	2.500000e+01	2.500000e+01	1.192470e+05							
-9.800000e+03	-9.833797e-07	0.000000e+00	2.500000e+01	2.500000e+01	1.192470e+05	-9.800000e+03	-9.833265e-07	1.000000e+03	2.500000e+01	2.500000e+01	1.192470e+05							
-9.700000e+03	-9.733554e-07	0.000000e+00	2.500000e+01	2.500000e+01	1.192470e+05	-9.700000e+03	-9.738156e-07	1.000000e+03	2.500000e+01	2.500000e+01	1.192470e+05							
-9.600000e+03	-9.629379e-07	0.000000e+00	2.500000e+01	2.500000e+01	1.192470e+05	-9.600000e+03	-9.632354e-07	1.000000e+03	2.500000e+01	2.500000e+01	1.192470e+05							
-9.500000e+03	-9.532299e-07	0.000000e+00	2.500000e+01	2.500000e+01	1.192470e+05	-9.500000e+03	-9.528221e-07	1.000000e+03	2.500000e+01	2.500000e+01	1.192470e+05							
-9.400000e+03	-9.432828e-07	0.000000e+00	2.500000e+01	2.500000e+01	1.192470e+05	-9.400000e+03	-9.429418e-07	1.000000e+03	2.500000e+01	2.500000e+01	1.192470e+05							
-9.300000e+03	-9.330518e-07	0.000000e+00	2.500000e+01	2.500000e+01	1.192470e+05	-9.300000e+03	-9.330570e-07	1.000000e+03	2.500000e+01	2.500000e+01	1.192470e+05							
-9.200000e+03	-9.231910e-07	0.000000e+00	2.500000e+01	2.500000e+01	1.192470e+05	-9.200000e+03	-9.225817e-07	1.000000e+03	2.500000e+01	2.500000e+01	1.192470e+05							
-9.100000e+03	-9.134546e-07	0.000000e+00	2.500000e+01	2.500000e+01	1.192470e+05	-9.100000e+03	-9.127591e-07	1.000000e+03	2.500000e+01	2.500000e+01	1.192470e+05							
-9.000000e+03	-9.032287e-07	0.000000e+00	2.500000e+01	2.500000e+01	1.192470e+05	-9.000000e+03	-9.028024e-07	1.000000e+03	2.500000e+01	2.500000e+01	1.192470e+05							
-8.900000e+03	-8.925863e-07	0.000000e+00	2.500000e+01	2.500000e+01	1.192470e+05	-8.900000e+03	-8.928351e-07	1.000000e+03	2.500000e+01	2.500000e+01	1.192470e+05							
-8.800000e+03	-8.827442e-07	0.000000e+00	2.500000e+01	2.500000e+01	1.192470e+05	-8.800000e+03	-8.828784e-07	1.000000e+03	2.500000e+01	2.500000e+01	1.192470e+05							
-8.700000e+03	-8.726001e-07	0.000000e+00	2.500000e+01	2.500000e+01	1.192470e+05	-8.700000e+03	-8.727440e-07	1.000000e+03	2.500000e+01	2.500000e+01	1.192470e+05							
-8.600000e+03	-8.625856e-07	0.000000e+00	2.500000e+01	2.500000e+01	1.192470e+05	-8.600000e+03	-8.626621e-07	1.000000e+03	2.500000e+01	2.500000e+01	1.192470e+05							
-8.500000e+03	-8.528253e-07	0.000000e+00	2.500000e+01	2.500000e+01	1.192470e+05	-8.500000e+03	-8.526042e-07	1.000000e+03	2.500000e+01	2.500000e+01	1.192470e+05							
-8.400000e+03	-8.427531e-07	0.000000e+00	2.500000e+01	2.500000e+01	1.192470e+05	-8.400000e+03	-8.430312e-07	1.000000e+03	2.500000e+01	2.500000e+01	1.192470e+05							
-8.300000e+03	-8.328294e-07	0.000000e+00	2.500000e+01	2.500000e+01	1.192470e+05	-8.300000e+03	-8.330114e-07	1.000000e+03	2.500000e+01	2.500000e+01	1.192470e+05							
